!Keysight Technologies,P5022A,MY58100238,A.14.30.03
!Date: Monday, August 28, 2023 15:30:39
!Correction: S11(C  3-Port  ) 
!S12(C  3-Port  ) 
!S13(C  3-Port  ) 
!S21(C  3-Port  ) 
!S22(C  3-Port  ) 
!S23(C  3-Port  ) 
!S31(C  3-Port  ) 
!S32(C  3-Port  ) 
!S33(C  3-Port  ) 
!S3P File: Measurement: :
!Deduct Board Loss
# Hz S  dB   R 50
9000	-23.970020	-7.826625	-0.568880	0.574423	-92.372341	-40.360352
-0.571761	0.577260	-23.561104	-9.768400	-87.820858	147.192140
-89.616070	-67.666618	-90.479252	122.376520	-21.052382	177.807080
10000	-23.800070	-5.324973	-0.574961	0.348445	-106.069870	-108.569420
-0.576862	0.430076	-23.647697	-6.606174	-96.321565	96.505814
-90.145631	-21.382334	-98.093675	120.787210	-21.051233	177.954210
100000	-24.457808	0.031025	-0.559206	-0.073319	-100.608308	-50.117691
-0.557132	-0.055677	-24.304249	0.264698	-98.038439	-65.570702
-100.593948	-53.450649	-102.077958	57.398014	-21.054432	179.750170
200000	-24.481176	0.039645	-0.557113	-0.060484	-104.826509	11.363128
-0.554685	-0.047187	-24.328363	0.192039	-104.475309	6.307274
-103.829309	17.864002	-106.107019	112.639580	-21.052597	179.877380
300000	-24.478443	0.118900	-0.557298	-0.056919	-99.309027	0.049353
-0.555474	-0.046447	-24.329926	0.200833	-101.513890	-6.567467
-121.908090	63.669926	-109.953280	3.174034	-21.047930	179.906620
400000	-24.474697	-0.010531	-0.555989	-0.063271	-101.957323	28.725948
-0.553933	-0.054511	-24.316582	0.220186	-102.538603	23.087545
-107.556913	13.546865	-107.365053	-78.241348	-21.046829	179.919540
500000	-24.467882	0.038357	-0.556564	-0.072612	-102.105140	53.868382
-0.554538	-0.067025	-24.320663	0.106165	-103.875420	36.730190
-108.186540	22.841639	-111.850000	-26.265701	-21.048975	179.923840
600000	-24.477026	-0.063483	-0.557428	-0.081700	-103.402838	21.187038
-0.554849	-0.075284	-24.321251	0.080490	-110.232578	24.372639
-102.681398	22.050133	-103.156488	5.514565	-21.046497	179.917620
700000	-24.458521	-0.097014	-0.556920	-0.097004	-117.724736	12.181924
-0.554140	-0.087672	-24.313797	0.025051	-111.553446	-16.992836
-109.776636	21.767923	-104.650956	38.734627	-21.047853	179.881130
800000	-24.459431	-0.180441	-0.557006	-0.113226	-105.506785	22.447819
-0.554815	-0.099530	-24.308832	0.020533	-105.508485	12.313610
-106.492375	10.490378	-113.095555	39.580074	-21.050396	179.879240
900000	-24.465281	-0.327245	-0.556476	-0.127741	-100.872010	12.314823
-0.554006	-0.111508	-24.300610	-0.094917	-103.103250	4.381042
-103.002220	7.083714	-104.767180	58.471603	-21.048929	179.950680
1000000	-24.483559	-0.217802	-0.556713	-0.138968	-105.883446	16.174015
-0.554566	-0.120479	-24.327166	-0.156790	-107.608046	22.453928
-103.151596	31.021368	-115.049326	17.560387	-21.039070	179.884660
2000000	-24.492071	-0.442236	-0.556926	-0.252745	-100.461223	26.799608
-0.552006	-0.246737	-24.317606	-0.278119	-102.507003	23.503141
-103.716743	32.623943	-108.774753	55.852268	-21.048853	179.663420
3000000	-24.510008	-0.599885	-0.556932	-0.364109	-105.576481	44.827702
-0.551240	-0.376497	-24.343651	-0.536021	-109.876411	5.346081
-103.483311	50.771713	-105.333701	46.981781	-21.055731	179.512740
4000000	-24.513237	-0.776959	-0.555935	-0.472031	-99.241866	30.561577
-0.552320	-0.491536	-24.365002	-0.778338	-102.029455	32.192520
-100.357095	52.182335	-105.454965	56.773888	-21.063522	179.411560
5000000	-24.527462	-0.902854	-0.556980	-0.586137	-100.819746	40.938164
-0.553719	-0.608083	-24.389271	-0.946806	-103.461956	32.548157
-98.868585	56.421860	-101.864286	60.369366	-21.061686	179.297100
6000000	-24.528864	-1.140612	-0.555773	-0.700991	-100.440005	50.458359
-0.554541	-0.716262	-24.408365	-1.044281	-103.976605	77.419853
-101.362765	58.334202	-100.145905	63.078800	-21.061308	179.159840
7000000	-24.543520	-1.095548	-0.555762	-0.812203	-99.593267	64.964645
-0.554454	-0.826134	-24.423428	-0.974694	-99.544126	65.341774
-99.069844	62.290977	-100.903276	59.739300	-21.070789	179.013110
8000000	-24.553923	-1.217979	-0.555783	-0.923673	-98.444280	56.471077
-0.554302	-0.932454	-24.433287	-1.047638	-99.470998	66.823288
-98.008703	61.938663	-98.176145	67.391731	-21.073336	178.910890
9000000	-24.571901	-1.194042	-0.556455	-1.035611	-97.895993	66.135429
-0.554754	-1.043750	-24.441807	-1.036660	-99.175183	79.895966
-97.430371	62.675987	-97.936955	74.280334	-21.074280	178.778990
10000000	-24.575771	-1.295687	-0.555555	-1.142644	-97.146813	69.863243
-0.554185	-1.156149	-24.457272	-1.095209	-97.613747	72.452774
-97.293786	68.800804	-97.738274	76.683678	-21.071150	178.657670
20000000	-24.667713	-2.297253	-0.556385	-2.237214	-90.074338	78.577667
-0.556091	-2.236630	-24.497881	-1.686009	-90.315289	81.919296
-89.826443	76.330727	-90.559338	81.352455	-21.084562	177.557020
30000000	-24.644428	-2.891957	-0.557611	-3.305551	-85.905151	74.617661
-0.557716	-3.300972	-24.485567	-2.347474	-86.624878	76.441986
-86.148514	73.568100	-86.334427	76.931015	-21.098223	176.398640
40000000	-24.653238	-3.974083	-0.557622	-4.358837	-83.306045	69.238564
-0.557446	-4.363063	-24.431953	-3.196064	-83.464279	67.966980
-83.880905	67.115807	-83.878898	69.400238	-21.117752	175.354840
50000000	-24.615139	-5.150586	-0.557693	-5.414048	-81.725905	61.176262
-0.556697	-5.418887	-24.392004	-4.167350	-81.987021	62.366909
-81.929266	61.672253	-82.125670	62.973381	-21.137079	174.366420
60000000	-24.591423	-6.378432	-0.557936	-6.485331	-80.661593	57.548969
-0.558121	-6.461305	-24.347538	-5.252462	-80.747958	57.923237
-80.785830	58.905895	-81.165431	56.814068	-21.153738	173.361400
70000000	-24.561596	-7.601914	-0.556989	-7.534835	-79.666844	53.885181
-0.558166	-7.511190	-24.301460	-6.314337	-80.128354	52.686794
-79.833851	53.119755	-80.323529	52.774696	-21.168715	172.401930
80000000	-24.523722	-8.818828	-0.557094	-8.578330	-79.152655	50.223125
-0.558115	-8.561101	-24.275524	-7.408013	-79.453383	48.895050
-79.482351	49.845684	-79.655836	48.639969	-21.196945	171.431840
90000000	-24.484835	-9.996644	-0.556087	-9.627043	-78.520651	47.070755
-0.557016	-9.610422	-24.229031	-8.389763	-78.720144	46.382877
-78.852102	46.403942	-79.306524	45.011143	-21.220217	170.435730
100000000	-24.456615	-11.172911	-0.556147	-10.674318	-78.096524	44.554695
-0.557427	-10.655830	-24.196724	-9.454141	-78.546399	43.521828
-78.450345	44.757526	-78.878041	42.803276	-21.242498	169.438110
