!Keysight Technologies,N5247B,MY61255066,A.15.50.07
!Date: Tuesday, August 29, 2023 14:14:51
!Correction: S11(C  3-Port  ) 
!S12(C  3-Port  ) 
!S13(C  3-Port  ) 
!S21(C  3-Port  ) 
!S22(C  3-Port  ) 
!S23(C  3-Port  ) 
!S31(C  3-Port  ) 
!S32(C  3-Port  ) 
!S33(C  3-Port  ) 
!S3P File: Measurements: <S11,S12,S13>,
!<S21,S22,S23>,
!<S31,S32,S33>:
!Deduct Board Loss
# Hz S  dB   R 50
10000000	-19.189495	47.753262	-0.542278	-6.381980	-85.791037	-50.325375
-0.540874	-6.364167	-19.216671	48.400116	-76.303465	-153.302030
-87.381605	-87.238777	-81.095877	49.851151	-19.809259	142.896450
20000000	-22.215921	30.990238	-0.544894	-4.919532	-85.149559	155.996570
-0.542433	-4.918282	-22.428659	31.658073	-92.844506	-19.987173
-82.047936	72.589577	-83.006562	-2.785859	-20.829971	157.980000
30000000	-23.113842	20.663294	-0.544946	-5.125290	-86.154669	78.990685
-0.542665	-5.121596	-23.294325	21.445595	-82.213385	83.676781
-91.354284	28.027700	-84.183043	70.652161	-21.079796	163.022670
40000000	-23.417738	14.119572	-0.544514	-5.753905	-83.805915	67.156944
-0.543997	-5.756525	-23.653177	14.781853	-86.180121	64.364433
-83.057112	64.532852	-82.781363	67.129379	-21.183670	165.047040
50000000	-23.571169	9.641276	-0.545952	-6.513918	-81.824537	59.699501
-0.544504	-6.519469	-23.808214	10.511464	-84.030187	66.224945
-81.917371	57.385918	-82.204504	61.865479	-21.248274	165.951460
60000000	-23.637487	6.394573	-0.546273	-7.407831	-82.141109	56.744965
-0.546213	-7.412079	-23.890934	6.788453	-83.832523	44.437328
-78.517375	51.605156	-83.874210	65.546265	-21.304804	166.190030
70000000	-23.675299	3.524851	-0.545679	-8.344723	-78.598023	47.996468
-0.547016	-8.348679	-23.933231	3.898291	-80.707421	60.700184
-79.556313	52.220390	-79.392861	57.695400	-21.341129	165.956940
80000000	-23.646933	1.122531	-0.545938	-9.327503	-79.815561	49.571251
-0.546011	-9.332762	-23.947794	1.357018	-79.800157	50.809040
-79.708787	47.766445	-79.541337	49.131935	-21.380119	165.608760
90000000	-23.624477	-1.052622	-0.546631	-10.304729	-78.094447	46.590023
-0.545295	-10.304543	-23.916475	-0.481277	-79.122203	41.025414
-78.089504	49.067757	-78.693813	47.674812	-21.418795	165.062530
100000000	-23.636747	-3.277303	-0.546412	-11.306515	-77.084941	42.998135
-0.544655	-11.307446	-23.892668	-2.880213	-77.670695	45.615269
-78.322902	37.391342	-78.492511	43.234158	-21.447117	164.388380
200000000	-23.344362	-20.717779	-0.550015	-21.522755	-75.220487	33.171638
-0.548145	-21.516710	-23.676203	-20.255442	-75.481633	30.799492
-75.786443	28.351324	-77.422460	33.150871	-21.583662	156.206420
300000000	-23.039122	-36.107815	-0.554773	-31.860224	-74.525585	32.924133
-0.553515	-31.860966	-23.428185	-35.800934	-75.334834	26.373148
-74.374103	32.812370	-74.928661	28.367456	-21.795845	146.895110
400000000	-22.696444	-50.712326	-0.559986	-42.218426	-72.955299	20.625477
-0.558570	-42.216843	-23.252319	-50.620201	-73.360855	20.007938
-73.354492	22.493958	-73.392044	17.546011	-21.963423	137.137990
500000000	-22.366558	-64.947617	-0.565473	-52.571499	-72.016858	19.421646
-0.563080	-52.570831	-23.065371	-65.138115	-71.788556	17.737118
-71.445569	21.519543	-72.262654	11.585363	-22.102810	127.728860
600000000	-22.061991	-78.666183	-0.572462	-62.910297	-70.410832	11.356398
-0.570957	-62.907581	-22.918648	-79.473770	-70.801541	2.269787
-69.979382	13.028848	-70.783886	4.295562	-22.275820	118.056460
700000000	-21.756405	-92.069443	-0.581250	-73.239494	-68.977258	4.103703
-0.579121	-73.240227	-22.856638	-93.593468	-69.234231	-1.264751
-68.584177	5.385870	-69.953119	-1.798373	-22.437252	108.275390
800000000	-21.521128	-105.000570	-0.590293	-83.559311	-67.913322	-4.518302
-0.588154	-83.555801	-22.790909	-107.218560	-68.676109	-13.661247
-67.874756	-4.032501	-68.598625	-11.747649	-22.603285	98.914566
900000000	-21.298578	-117.808750	-0.598738	-93.871582	-66.858957	-8.778856
-0.596666	-93.861618	-22.759132	-120.608870	-67.896913	-23.001343
-66.764063	-12.521096	-67.783632	-19.558865	-22.778318	89.130272
1000000000	-21.126255	-130.274630	-0.610181	-104.158240	-65.926523	-20.477379
-0.607867	-104.154040	-22.760948	-133.976010	-66.807413	-32.804016
-65.972253	-19.908131	-67.175279	-31.027344	-22.961773	79.155922
1100000000	-21.013504	-142.263600	-0.620219	-114.436670	-65.078490	-27.533508
-0.618490	-114.435330	-22.855465	-147.038970	-66.342086	-43.752140
-65.447150	-27.046726	-66.242736	-41.821384	-23.199003	69.520889
1200000000	-20.952822	-153.860460	-0.630608	-124.713750	-64.507259	-38.305645
-0.628360	-124.713600	-22.985273	-159.565400	-65.346264	-52.608582
-64.512730	-37.710575	-65.752575	-51.136868	-23.447031	59.845375
1300000000	-20.968679	-165.071580	-0.641904	-134.981430	-63.846402	-46.954170
-0.639487	-134.977220	-23.129574	-171.839920	-64.991864	-63.430569
-64.042370	-46.484959	-65.137211	-62.213863	-23.648783	50.011105
1400000000	-21.002445	-176.060730	-0.651898	-145.239400	-63.450686	-56.250008
-0.649567	-145.239750	-23.352533	176.259020	-64.613524	-73.294357
-63.404802	-55.535530	-64.551466	-73.382561	-23.886095	40.058094
1500000000	-21.098703	173.440050	-0.660562	-155.485200	-62.919903	-65.092438
-0.659944	-155.482280	-23.646851	164.911540	-64.296506	-83.930397
-62.917969	-65.019135	-64.276082	-83.871132	-24.154638	29.930073
1600000000	-21.266893	163.224520	-0.670416	-165.717680	-62.384190	-75.047081
-0.668465	-165.712080	-23.966593	154.075410	-63.758305	-95.393066
-62.484669	-74.098846	-63.801724	-95.146141	-24.421686	19.892941
1700000000	-21.473097	153.409450	-0.678870	-175.927700	-62.054603	-82.701950
-0.676439	-175.925230	-24.360725	143.502690	-63.596916	-106.539570
-61.977176	-84.438576	-63.567459	-104.170810	-24.686754	9.665660
1800000000	-21.726147	143.930680	-0.686381	173.871700	-61.411994	-93.508240
-0.684942	173.875560	-24.822481	133.306880	-63.158760	-115.504460
-61.628711	-91.765869	-63.047836	-115.961260	-24.979935	-0.637935
1900000000	-22.044552	134.863800	-0.693923	163.682420	-61.111205	-102.145490
-0.691435	163.686840	-25.397448	123.683280	-62.689674	-125.391200
-61.147823	-101.335070	-62.705817	-124.095260	-25.253918	-10.714705
2000000000	-22.456350	126.280500	-0.699388	153.503330	-60.816286	-111.059910
-0.699229	153.504700	-26.044374	114.738490	-62.292136	-136.612490
-60.806845	-109.231300	-62.539759	-135.835770	-25.449408	-21.007093
2100000000	-22.904156	118.309410	-0.706229	143.314210	-60.448039	-119.923330
-0.704950	143.315730	-26.805748	106.627590	-62.307418	-146.764180
-60.363810	-120.084430	-62.449611	-147.662860	-25.617474	-32.116592
2200000000	-23.389336	111.114240	-0.711580	133.118070	-60.204820	-129.501590
-0.711794	133.120380	-27.674623	99.748093	-61.882139	-156.421800
-60.218019	-129.829390	-61.994730	-156.413120	-25.857252	-43.404591
2300000000	-23.880232	104.647580	-0.717059	122.935950	-60.042844	-138.995610
-0.715969	122.938170	-28.559931	94.662361	-61.808877	-166.448960
-59.955655	-139.263820	-62.112229	-166.066850	-26.087196	-54.704193
2400000000	-24.364386	98.749680	-0.721145	112.751230	-59.678806	-146.612810
-0.720037	112.747760	-29.316055	90.997597	-61.825397	-176.861560
-59.660819	-146.661160	-61.903858	-175.854510	-26.272308	-65.795197
2500000000	-24.835609	93.626740	-0.727313	102.568730	-59.206725	-157.215960
-0.726789	102.570040	-30.056538	89.238525	-61.558082	173.922440
-59.380454	-156.330960	-61.591903	174.423030	-26.429287	-77.111603
2600000000	-25.185404	89.356575	-0.732457	92.393097	-59.054538	-165.484100
-0.730458	92.394264	-30.550293	88.852570	-61.320914	160.878300
-58.997844	-165.025540	-61.402545	161.167420	-26.554609	-88.578979
2700000000	-25.478533	85.217155	-0.737338	82.219200	-58.891013	-175.714080
-0.735577	82.217804	-30.621649	89.431511	-61.211661	152.031280
-58.917349	-173.956390	-61.084853	151.822190	-26.628613	-99.877083
2800000000	-25.670036	81.035683	-0.741553	72.044258	-58.606856	175.565800
-0.740401	72.044075	-30.364368	89.480583	-61.195765	141.040510
-58.555693	176.871260	-61.195758	142.795120	-26.639099	-111.525640
2900000000	-25.745670	77.058937	-0.746481	61.886547	-58.428194	167.533280
-0.745655	61.882778	-29.880051	87.833923	-61.014875	132.919420
-58.415826	167.067930	-61.159277	132.638210	-26.663694	-123.253110
3000000000	-25.643597	72.189072	-0.748866	51.726017	-58.075718	158.375670
-0.748808	51.724743	-29.247683	84.554039	-60.762257	121.540010
-58.185840	158.447080	-61.031181	121.503190	-26.668690	-134.372710
3100000000	-25.541349	67.003075	-0.753894	41.568027	-57.862813	149.123570
-0.752762	41.563686	-28.618179	80.053192	-61.001275	111.664830
-57.947587	149.223650	-60.993188	110.958180	-26.559452	-145.162950
3200000000	-25.367046	60.968426	-0.759288	31.413109	-57.655897	139.745970
-0.757228	31.411074	-28.007116	73.813133	-60.719934	101.349360
-57.684522	139.509250	-61.111463	102.844130	-26.415014	-156.092710
3300000000	-25.191530	53.722488	-0.763198	21.264053	-57.499621	129.574460
-0.762702	21.262573	-27.534706	66.514313	-60.928138	91.688942
-57.584311	130.951720	-60.777873	91.807663	-26.300451	-166.686250
3400000000	-25.050276	45.800800	-0.765038	11.115694	-57.253813	120.760410
-0.764346	11.113531	-27.136154	58.194927	-60.570853	82.500198
-57.320475	120.914270	-60.765364	82.734482	-26.123802	-177.046840
3500000000	-24.938440	37.379402	-0.767389	0.974796	-56.971354	111.513240
-0.766389	0.973638	-26.839491	49.106190	-60.670245	73.850090
-56.925441	112.220800	-60.921840	73.813721	-25.923807	172.927840
3600000000	-24.865963	27.973391	-0.768657	-9.169493	-56.934900	102.114240
-0.767498	-9.167631	-26.616959	39.232895	-60.655118	62.997635
-56.833940	102.430800	-60.763730	62.737091	-25.753685	162.841610
3700000000	-24.852303	17.976421	-0.769887	-19.310389	-56.759730	93.380981
-0.768168	-19.313232	-26.536375	28.912392	-60.609347	51.666168
-56.674102	93.743851	-60.874930	53.692776	-25.592754	153.412570
3800000000	-24.902700	7.053942	-0.770750	-29.455967	-56.625047	84.124557
-0.769910	-29.459316	-26.600040	18.227663	-60.708254	43.988010
-56.572435	85.783546	-61.014860	43.563137	-25.388233	144.827350
3900000000	-24.941536	-4.775094	-0.770653	-39.604115	-56.538862	74.517548
-0.768641	-39.609234	-26.766813	6.922249	-60.677869	33.851315
-56.450212	75.765709	-60.878198	34.311298	-25.167410	135.673980
4000000000	-24.995577	-16.771843	-0.770890	-49.764584	-56.369005	66.106857
-0.768870	-49.768677	-26.988968	-4.629186	-60.627836	25.363501
-56.257071	67.812958	-60.854918	27.284122	-24.986383	126.222390
4100000000	-25.071198	-29.630501	-0.767792	-59.928833	-56.212415	57.470257
-0.767247	-59.928749	-27.292324	-16.618729	-60.466729	16.571745
-55.991170	57.973579	-60.561326	17.390732	-24.742004	116.646770
4200000000	-25.228416	-43.039589	-0.766258	-70.102692	-55.900754	48.942730
-0.765203	-70.102562	-27.861559	-28.895067	-60.217660	6.559225
-55.862290	48.190121	-60.158818	8.125587	-24.391018	107.300830
4300000000	-25.441193	-57.982700	-0.766083	-80.283333	-55.748886	40.579750
-0.763444	-80.284065	-28.640867	-42.860256	-60.229969	-4.679096
-55.660393	39.568764	-60.262955	-2.816695	-24.136559	98.815933
4400000000	-25.544834	-73.548035	-0.767082	-90.462906	-55.504169	31.271988
-0.765804	-90.466583	-29.505203	-58.129902	-60.222274	-14.525150
-55.386699	30.380457	-60.061153	-14.026412	-24.028845	90.646515
4500000000	-25.486769	-89.694176	-0.768721	-100.648940	-55.317372	21.301775
-0.767581	-100.646920	-30.408880	-75.142311	-60.187978	-24.978580
-55.386479	21.758642	-60.105958	-24.775640	-23.934660	82.922890
4600000000	-25.347002	-106.049000	-0.771315	-110.817710	-55.103905	11.774073
-0.769104	-110.822430	-31.314837	-94.448624	-60.366085	-35.040714
-55.115883	11.634466	-60.302559	-34.030342	-23.835922	75.139511
4700000000	-25.112988	-122.661840	-0.772994	-120.995850	-54.899040	2.338067
-0.771818	-120.999050	-32.175690	-116.627420	-60.321499	-43.481380
-54.901768	1.832681	-60.424152	-44.328594	-23.740652	67.239647
4800000000	-24.761473	-139.046370	-0.775977	-131.176910	-54.804869	-8.705907
-0.775073	-131.178090	-32.584980	-140.971540	-60.470778	-54.607300
-54.884116	-7.937590	-60.402915	-53.472260	-23.733894	59.834980
4900000000	-24.358965	-154.560270	-0.779038	-141.359220	-54.815568	-17.823343
-0.778681	-141.361130	-32.470268	-165.263320	-60.468018	-63.386425
-54.772939	-17.142847	-60.464539	-63.571575	-23.768810	52.435070
5000000000	-23.882839	-169.339780	-0.784501	-151.546540	-54.844568	-27.020247
-0.783082	-151.550080	-31.938276	172.061580	-60.574582	-74.180695
-54.825139	-27.111794	-60.424012	-73.361717	-23.766899	45.102901
5100000000	-23.399208	176.816700	-0.791436	-161.725460	-54.639722	-35.963890
-0.790537	-161.725420	-31.143511	151.485110	-60.600476	-83.757477
-54.638253	-36.021832	-60.584012	-82.909325	-23.840309	37.596123
5200000000	-22.916840	163.652390	-0.798433	-171.899170	-54.633891	-45.039082
-0.797554	-171.900300	-30.327408	133.264660	-60.611868	-92.626480
-54.720946	-45.442585	-60.723673	-92.565262	-23.959534	30.147715
5300000000	-22.473240	151.238200	-0.805739	177.929400	-54.578375	-53.901756
-0.804924	177.930890	-29.565992	117.063910	-60.584529	-103.037260
-54.508254	-53.733303	-60.585871	-102.969100	-24.102415	22.794266
5400000000	-22.082439	139.744230	-0.814184	167.777390	-54.425526	-63.177544
-0.813995	167.774150	-28.918285	102.703620	-60.559342	-112.386670
-54.478814	-62.880486	-60.594716	-112.900540	-24.304329	15.498845
5500000000	-21.744122	128.666890	-0.823095	157.624980	-54.365508	-72.277122
-0.821685	157.622880	-28.412477	89.153534	-60.688346	-122.285350
-54.309867	-72.169197	-60.750003	-123.137520	-24.536953	8.431790
5600000000	-21.457623	118.034160	-0.830930	147.478820	-54.244632	-81.364975
-0.830794	147.479350	-28.063946	76.420692	-60.642287	-132.911040
-54.206042	-81.713318	-60.944350	-132.203870	-24.788900	1.236736
5700000000	-21.220179	108.006720	-0.839224	137.341030	-54.193153	-90.512436
-0.837894	137.339140	-27.892393	64.309341	-61.120578	-142.091770
-54.156245	-90.197983	-60.947662	-142.262050	-25.082726	-6.155841
5800000000	-21.064333	98.538269	-0.847405	127.204440	-54.075014	-99.079132
-0.846487	127.202130	-27.888800	52.648411	-61.135518	-151.585880
-54.058996	-99.039482	-61.217935	-151.998170	-25.446312	-13.744996
5900000000	-20.938154	89.548782	-0.854969	117.079360	-53.944794	-109.076150
-0.853928	117.077450	-28.056086	41.552631	-61.379719	-162.825500
-53.905560	-108.583150	-61.248528	-160.377790	-25.894358	-21.308451
6000000000	-20.871477	81.010216	-0.862339	106.947840	-53.846781	-117.604780
-0.860098	106.950390	-28.420568	30.865738	-61.480112	-172.272830
-53.774298	-117.605750	-61.477137	-171.838940	-26.392204	-29.082359
6100000000	-20.844143	72.849899	-0.869067	96.829193	-53.761430	-126.356630
-0.867040	96.824982	-28.984787	20.534609	-61.603608	176.965060
-53.719502	-126.630490	-61.554291	178.076490	-26.921129	-36.782921
6200000000	-20.845188	65.059212	-0.875972	86.706726	-53.601553	-135.517870
-0.874480	86.701012	-29.756273	10.618748	-61.901556	168.780300
-53.624429	-135.842650	-61.955434	169.974490	-27.511639	-44.772366
6300000000	-20.871565	57.666489	-0.880275	76.582146	-53.494436	-145.406750
-0.879897	76.581581	-30.762732	1.447761	-62.203566	156.857220
-53.498213	-144.993650	-62.308233	158.900680	-28.144867	-53.241074
6400000000	-20.941669	50.692997	-0.887232	66.465508	-53.368125	-154.581150
-0.886076	66.464058	-32.139709	-6.583646	-62.788875	150.225880
-53.339656	-154.435750	-62.963862	150.332820	-28.959475	-62.420868
6500000000	-21.015837	44.064934	-0.892029	56.335182	-53.175377	-164.090240
-0.891419	56.338043	-33.972069	-13.208189	-63.326878	143.070560
-53.200234	-164.284410	-63.182530	140.696910	-29.791374	-72.203041
6600000000	-21.066034	37.866173	-0.897421	46.217045	-53.017194	-173.772290
-0.897236	46.215488	-36.553211	-16.603298	-63.822102	135.387890
-53.017327	-174.123410	-64.161999	133.719500	-30.760633	-82.145767
6700000000	-21.115091	31.834639	-0.901865	36.097801	-52.833172	176.239820
-0.902561	36.097469	-40.030052	-12.404449	-64.661420	130.709880
-52.884244	175.885730	-64.569409	129.908460	-31.810827	-93.656204
6800000000	-21.143492	25.933569	-0.908948	25.973616	-52.835155	163.992450
-0.907870	25.974504	-43.423363	13.768270	-65.210243	129.364760
-52.836036	165.234890	-65.243438	129.923710	-32.829815	-107.036500
6900000000	-21.153351	19.965496	-0.915407	15.859982	-52.919922	153.143460
-0.914564	15.858438	-41.915916	49.447689	-64.793285	133.643940
-52.935978	152.992100	-64.448307	134.263000	-33.897358	-122.631430
7000000000	-21.144556	13.997178	-0.921131	5.756642	-53.457258	142.591110
-0.920137	5.754251	-38.159061	62.853729	-63.102389	130.157810
-53.376570	142.182630	-63.203448	132.309660	-34.795662	-140.206500
7100000000	-21.124371	7.850838	-0.925878	-4.345475	-53.882750	134.808620
-0.925610	-4.346891	-35.213654	63.267040	-61.261500	119.824990
-53.922625	134.951450	-61.396956	119.537600	-35.268944	-160.333800
7200000000	-21.091061	1.460937	-0.928587	-14.450523	-54.070491	128.943820
-0.928012	-14.445324	-32.940022	59.044369	-60.357555	104.578190
-54.055107	128.787170	-60.329360	105.636170	-35.320606	179.218990
7300000000	-21.055866	-5.032705	-0.931581	-24.556194	-53.920023	122.342930
-0.931136	-24.559801	-31.206612	52.620071	-60.243754	89.965836
-53.865690	122.207820	-60.317217	88.759834	-34.895538	160.360280
7400000000	-21.003502	-11.794246	-0.935348	-34.667908	-53.644292	114.031340
-0.934571	-34.666222	-29.758772	44.860783	-60.333203	77.662407
-53.647515	114.314080	-60.402917	77.612778	-33.973942	142.869930
7500000000	-20.963003	-18.769617	-0.938193	-44.778900	-53.523408	105.917840
-0.937804	-44.781269	-28.597229	36.663288	-60.401845	65.559402
-53.508069	105.861480	-60.462049	66.699959	-32.918831	127.317180
7600000000	-20.922682	-26.335802	-0.941923	-54.897602	-53.359523	96.917992
-0.941128	-54.897598	-27.710625	28.024014	-60.366732	55.725304
-53.391135	97.297661	-60.484504	55.534229	-31.821230	113.873060
7700000000	-20.896847	-34.342133	-0.945630	-65.009926	-53.221112	88.065262
-0.945150	-65.012024	-27.066532	18.833040	-60.547616	44.901592
-53.234548	89.143188	-60.776773	44.777325	-30.812016	102.126990
7800000000	-20.860113	-42.554821	-0.948597	-75.125481	-53.062140	79.357643
-0.948003	-75.126724	-26.489668	10.033475	-60.606719	36.691689
-53.106528	79.119225	-60.679789	36.729343	-29.854219	91.567108
7900000000	-20.875645	-51.380623	-0.951562	-85.236481	-52.932016	70.301811
-0.951821	-85.239075	-26.105814	0.906220	-60.639642	26.914522
-52.925413	70.596535	-60.733175	26.081043	-29.019758	81.924927
8000000000	-20.909887	-60.457794	-0.955104	-95.354744	-52.795327	61.422760
-0.954694	-95.355721	-25.815975	-8.315821	-60.513192	18.703560
-52.734726	61.339882	-60.549626	19.078384	-28.249537	72.955856
8100000000	-20.958508	-70.076065	-0.957666	-105.475590	-52.552070	51.100246
-0.957835	-105.476340	-25.658173	-17.186466	-60.025905	10.302779
-52.490699	51.822380	-60.063983	10.985462	-27.518282	64.807297
8200000000	-21.029945	-79.926445	-0.960909	-115.589070	-52.398944	41.287891
-0.960760	-115.591380	-25.575340	-25.968409	-59.632709	-2.559373
-52.460983	41.898983	-59.737182	-1.775691	-26.875601	56.972462
8300000000	-21.127686	-90.350555	-0.962734	-125.713100	-52.362345	31.302382
-0.963470	-125.719310	-25.598085	-34.747356	-59.802618	-14.814075
-52.335581	31.391701	-59.738707	-14.897470	-26.377394	49.064106
8400000000	-21.211294	-101.065960	-0.964632	-135.844310	-52.443519	20.947165
-0.964695	-135.838680	-25.714857	-43.377159	-59.968414	-24.739349
-52.399398	21.534388	-60.022285	-25.502445	-25.900505	41.614670
8500000000	-21.302498	-112.131150	-0.967323	-145.968290	-52.514878	11.098029
-0.966938	-145.966900	-25.836901	-51.722988	-59.867204	-35.473644
-52.517098	11.285609	-59.939424	-34.201221	-25.480608	34.794872
8600000000	-21.389261	-123.473210	-0.971634	-156.102020	-52.641187	1.275849
