!Keysight Technologies,N5247B,MY61255066,A.15.50.07
!Date: Tuesday, August 29, 2023 14:14:59
!Correction: S11(C  3-Port  ) 
!S12(C  3-Port  ) 
!S13(C  3-Port  ) 
!S21(C  3-Port  ) 
!S22(C  3-Port  ) 
!S23(C  3-Port  ) 
!S31(C  3-Port  ) 
!S32(C  3-Port  ) 
!S33(C  3-Port  ) 
!S3P File: Measurements: <S11,S12,S13>,
!<S21,S22,S23>,
!<S31,S32,S33>:
!Deduct Board Loss
# Hz S  dB   R 50
10000000	-19.149052	47.367119	-78.986609	122.176900	-0.545457	-6.345349
-77.551794	163.063130	-19.787868	142.952320	-80.282377	-174.260040
-0.545203	-6.352780	-85.996939	-15.414629	-19.188948	48.059841
20000000	-22.133177	30.435722	-87.877014	-18.692698	-0.551337	-4.924543
-95.113327	80.101143	-20.781572	158.234700	-90.189804	150.011870
-0.551450	-4.914746	-96.797730	58.982456	-22.353409	31.380245
30000000	-23.012070	20.364622	-81.569120	78.688042	-0.552601	-5.127187
-86.576368	75.575691	-21.025030	163.271990	-84.770323	82.025856
-0.551899	-5.124176	-84.677404	56.909046	-23.194229	21.383526
40000000	-23.326416	13.983511	-84.605803	55.468430	-0.551078	-5.764823
-81.538939	50.077614	-21.130266	165.285960	-86.201148	85.263901
-0.551283	-5.757714	-86.296446	45.961861	-23.552677	14.747844
50000000	-23.487356	9.492146	-82.362455	61.425995	-0.552150	-6.521278
-83.490148	53.873592	-21.199175	166.209530	-81.209493	76.229424
-0.551968	-6.516012	-80.613096	52.204815	-23.701591	10.560843
60000000	-23.570017	6.339016	-81.121593	42.617767	-0.553449	-7.410564
-80.527812	62.997971	-21.241982	166.422910	-81.331416	56.893074
-0.552834	-7.418970	-82.729793	57.797970	-23.778381	6.847187
70000000	-23.598322	3.594999	-79.711533	50.732040	-0.552979	-8.348714
-78.864899	54.334282	-21.273603	166.212160	-81.806954	60.120964
-0.553425	-8.350007	-80.612069	51.945671	-23.818857	3.963971
80000000	-23.570704	1.224433	-77.616822	48.866535	-0.553789	-9.330119
-77.564790	44.876633	-21.304562	165.872590	-80.782930	49.072910
-0.552666	-9.326941	-78.701677	45.803242	-23.816427	1.452512
90000000	-23.551666	-0.915048	-78.266399	47.841049	-0.553533	-10.302405
-78.902355	50.074150	-21.327791	165.359820	-80.234035	47.451065
-0.552522	-10.300529	-78.724742	43.034992	-23.769325	-0.323984
100000000	-23.553373	-3.093774	-77.763041	47.987522	-0.554049	-11.305181
-77.508441	44.420757	-21.348259	164.765490	-78.745768	46.611855
-0.553348	-11.301808	-79.395465	36.408875	-23.735073	-2.657568
200000000	-23.174932	-20.635876	-74.982976	33.464725	-0.558386	-21.502321
-75.296811	36.856171	-21.540945	156.799530	-77.536260	29.680061
-0.557102	-21.504038	-76.584332	27.087753	-23.605824	-19.529520
300000000	-22.908573	-35.730953	-72.707401	29.624634	-0.563900	-31.826080
-72.803958	29.800047	-21.723732	147.791200	-76.099414	24.073196
-0.562889	-31.830198	-75.911533	20.051683	-23.340878	-34.631042
400000000	-22.572895	-50.110630	-71.072220	31.138870	-0.570487	-42.175034
-73.734962	27.887350	-21.869940	138.463750	-75.050041	20.779398
-0.567562	-42.176205	-74.658401	13.268562	-23.175041	-48.888622
500000000	-22.228531	-64.535225	-70.932652	22.200087	-0.575432	-52.513317
-70.421208	25.039688	-22.065950	129.158400	-72.671651	17.238661
-0.573081	-52.514400	-72.947484	7.841361	-23.082741	-63.401756
600000000	-21.912371	-78.204132	-69.005826	11.693594	-0.582739	-62.845284
-69.049031	17.005882	-22.278214	119.768310	-71.984097	5.538087
-0.580653	-62.841232	-71.029309	6.112534	-23.009470	-77.535660
700000000	-21.623171	-91.534004	-67.594148	7.205885	-0.591058	-73.156548
-67.424486	7.426104	-22.459024	110.393570	-70.753458	-7.738023
-0.589700	-73.159515	-70.644014	-6.237101	-23.010538	-91.365959
800000000	-21.395702	-104.693310	-66.648308	0.443249	-0.600608	-83.463524
-66.549148	-1.609694	-22.663818	100.798020	-69.100441	-15.031182
-0.598649	-83.465912	-69.626472	-14.770553	-22.984095	-105.423250
900000000	-21.173254	-117.352450	-65.590738	-9.375500	-0.609984	-93.758919
-65.363039	-8.791367	-22.909399	91.261581	-68.760897	-22.977236
-0.608394	-93.759727	-68.638857	-24.773891	-23.043936	-118.907980
1000000000	-21.013929	-129.576230	-65.009470	-18.135466	-0.621711	-104.034810
-64.870195	-16.941898	-23.157612	81.786728	-67.839395	-33.206139
-0.620069	-104.030810	-68.095895	-35.459064	-23.154037	-132.168500
1100000000	-20.914415	-141.588090	-63.987845	-26.708792	-0.632396	-114.298770
-63.883376	-27.001713	-23.410864	72.128777	-67.344970	-45.216873
-0.631683	-114.301660	-67.284819	-44.110298	-23.269846	-145.469940
1200000000	-20.854387	-153.258060	-63.470314	-35.952137	-0.642802	-124.559800
-63.415684	-35.521336	-23.685677	62.252491	-66.659306	-53.436085
-0.641605	-124.562190	-66.643078	-54.242050	-23.404089	-158.389800
1300000000	-20.850401	-164.330000	-62.880215	-44.636917	-0.654687	-134.813030
-62.752999	-45.405285	-23.992947	52.521145	-65.937931	-64.900734
-0.653294	-134.810700	-65.865597	-63.309155	-23.633001	-171.152050
1400000000	-20.904266	-175.162110	-62.096052	-54.543060	-0.664812	-145.055530
-62.361220	-54.194710	-24.302668	42.692822	-65.471678	-75.205688
-0.663075	-145.055620	-65.550879	-76.247246	-23.915257	176.616680
1500000000	-21.005011	174.384800	-61.736992	-64.280914	-0.674053	-155.284930
-61.610760	-63.066483	-24.613029	32.543358	-65.255566	-86.045441
-0.673319	-155.282930	-65.172932	-85.906189	-24.234686	165.018860
1600000000	-21.150387	164.268920	-61.419739	-73.559372	-0.684452	-165.499070
-61.346516	-72.404167	-24.981174	22.310156	-64.768513	-97.214508
-0.681907	-165.494840	-64.858639	-97.326836	-24.599586	153.574980
1700000000	-21.329798	154.762620	-60.675918	-81.770355	-0.692485	-175.696990
-60.806186	-81.529930	-25.343994	11.914707	-64.636955	-107.654080
-0.690671	-175.692490	-64.625083	-105.963490	-25.051506	142.404170
1800000000	-21.576450	145.440440	-60.450717	-91.059265	-0.700104	174.121400
-60.390357	-90.271011	-25.697409	1.482123	-64.367641	-116.816380
-0.698859	174.122910	-64.286495	-116.840280	-25.545576	131.873340
1900000000	-21.861143	136.418690	-59.979140	-99.374626	-0.707020	163.950210
-59.879813	-101.102500	-26.015875	-9.277762	-63.832702	-126.023140
-0.705170	163.951870	-63.807349	-127.988350	-26.094238	121.501910
2000000000	-22.213860	127.889010	-59.632498	-109.745700	-0.714409	153.780980
-59.610338	-109.031700	-26.307199	-20.265049	-63.764635	-137.319340
-0.711962	153.782120	-63.430041	-137.731190	-26.769077	111.571910
2100000000	-22.587658	120.156960	-59.154376	-119.108180	-0.719697	143.610050
-59.284812	-119.207010	-26.587292	-31.673845	-63.332911	-147.634370
-0.718590	143.612440	-63.376681	-148.338360	-27.651495	102.665680
2200000000	-23.009710	112.921150	-59.027326	-128.808840	-0.725641	133.428560
-59.002516	-128.088040	-26.841633	-43.469223	-63.524339	-159.004070
-0.724394	133.433350	-63.201704	-160.096470	-28.616859	95.371979
2300000000	-23.425617	106.248110	-58.652196	-137.932460	-0.731437	123.261840
-58.671659	-137.610820	-27.097212	-55.665997	-63.217374	-168.960370
-0.729262	123.263880	-63.057302	-169.730870	-29.568956	89.534531
2400000000	-23.786551	100.113140	-58.371616	-147.368640	-0.735635	113.089770
-58.361923	-146.087650	-27.314253	-67.755829	-63.064182	-177.507320
-0.732561	113.091450	-62.925525	179.725620	-30.474018	84.937744
2500000000	-24.151361	94.506981	-58.045753	-156.864490	-0.740612	102.925580
-58.093212	-156.262630	-27.478394	-79.940430	-62.656165	170.768130
-0.739047	102.928730	-62.644576	168.742840	-31.419676	82.939011
2600000000	-24.420755	89.366379	-57.834281	-164.271380	-0.745614	92.772194
-57.854789	-164.008470	-27.545963	-92.270508	-62.803687	159.891240
-0.742356	92.768166	-62.740348	159.047450	-32.059792	82.772690
2700000000	-24.645227	84.093315	-57.529006	-173.522320	-0.749720	82.613533
-57.635897	-174.274830	-27.583351	-104.660590	-62.417636	151.522930
-0.747962	82.609901	-62.594557	151.115370	-32.325268	83.847473
2800000000	-24.812828	78.839043	-57.382441	176.291440	-0.754608	72.455177
-57.412299	176.707490	-27.565296	-116.871270	-62.565154	138.390500
-0.753737	72.452133	-62.496173	140.826950	-32.185677	85.733086
2900000000	-24.893255	73.869156	-57.019930	167.320220	-0.759710	62.314732
-57.230852	167.839860	-27.477926	-128.821010	-62.674818	131.447590
-0.756666	62.310280	-62.334669	128.316420	-31.586582	85.663643
3000000000	-24.895155	67.841507	-56.895210	158.411100	-0.762514	52.170219
-56.781792	159.539930	-27.331972	-140.668840	-62.333507	122.367060
-0.760613	52.165546	-62.452503	119.302490	-30.816870	82.451805
3100000000	-24.889908	61.642799	-56.539331	149.033480	-0.765512	42.022690
-56.741597	149.195210	-27.116993	-152.102550	-62.393754	110.741510
-0.764002	42.022926	-62.528405	109.906400	-30.140509	78.015945
3200000000	-24.822977	54.787773	-56.488534	140.244520	-0.770458	31.887094
-56.505903	140.116970	-26.901493	-163.220230	-62.205183	100.975380
-0.767357	31.890301	-62.206289	101.456760	-29.451279	72.117348
3300000000	-24.801809	47.030060	-56.307246	131.635890	-0.773323	21.749205
-56.231585	130.079220	-26.643782	-173.825930	-62.217315	90.855370
-0.771660	21.748735	-62.227763	90.148338	-28.840540	64.596771
3400000000	-24.793652	38.647160	-56.139403	121.599720	-0.774817	11.617327
-56.092322	121.253740	-26.376858	175.879580	-62.396380	79.515114
-0.772721	11.617974	-62.192618	82.998535	-28.357534	56.050442
3500000000	-24.773996	29.929493	-55.923156	112.213390	-0.776222	1.487652
-55.950351	112.269000	-26.105663	165.989410	-62.208785	69.918900
-0.774061	1.489561	-62.117461	72.428284	-27.987207	46.845123
3600000000	-24.796635	20.532841	-55.816488	103.281420	-0.777803	-8.640094
-55.761602	103.089570	-25.853682	156.337190	-62.372667	60.816353
-0.775283	-8.641768	-62.284005	59.479851	-27.629110	36.726830
3700000000	-24.905647	10.404877	-55.628409	94.153175	-0.778405	-18.773705
-55.704787	94.593658	-25.579027	147.007260	-62.162783	49.690525
-0.776072	-18.772350	-62.245379	49.557381	-27.461889	25.704557
3800000000	-25.085348	-0.951300	-55.580965	85.096306	-0.778746	-28.910097
-55.572656	85.126785	-25.323008	138.210450	-62.218717	39.619762
-0.778027	-28.910322	-62.289778	39.275242	-27.525496	14.229952
3900000000	-25.178421	-12.879047	-55.434034	76.112083	-0.778398	-39.045509
-55.366373	76.081635	-25.088720	129.526200	-62.355810	30.215759
-0.776881	-39.043945	-62.318910	31.309402	-27.605738	2.784061
4000000000	-25.303596	-24.904274	-55.363924	66.541939	-0.779035	-49.190723
-55.362974	66.673836	-24.823343	120.643560	-62.316626	20.254164
-0.777333	-49.186848	-62.582380	21.471073	-27.676617	-9.240448
4100000000	-25.470963	-37.623970	-55.273118	58.608345	-0.776950	-59.336113
-55.289235	57.965931	-24.495623	111.215710	-62.296121	10.040365
-0.775764	-59.333279	-62.439198	9.575268	-27.859365	-21.942877
4200000000	-25.677990	-51.144764	-55.229772	49.560005	-0.775546	-69.494919
-55.314660	49.015621	-24.119194	102.146640	-62.580987	-1.518784
-0.773059	-69.490936	-62.576448	-0.546631	-28.326929	-34.887753
4300000000	-25.916555	-66.039139	-55.192429	41.278542	-0.774058	-79.660500
-55.162365	40.956303	-23.870333	93.887932	-62.797131	-11.569042
-0.770915	-79.658470	-62.786034	-10.778461	-28.991570	-49.656460
4400000000	-26.027443	-81.420326	-55.046092	33.737568	-0.775263	-89.825188
-55.090644	33.484482	-23.739676	86.023407	-63.045421	-21.095882
-0.773203	-89.825638	-63.253219	-19.848246	-29.603128	-65.432335
4500000000	-25.948576	-97.410866	-54.884171	26.107414	-0.776438	-99.995071
-54.904271	25.954035	-23.668638	78.409927	-63.618890	-30.076048
-0.775002	-99.995529	-63.537171	-26.201248	-30.284830	-82.955978
4600000000	-25.762039	-113.459850	-54.506485	18.182552	-0.777823	-110.158360
-54.604824	18.316643	-23.582005	70.947464	-64.102470	-34.380100
-0.775604	-110.157570	-64.230774	-34.549694	-30.893114	-102.071950
4700000000	-25.465555	-129.545850	-54.013756	9.410853	-0.779571	-120.326910
-54.125809	9.176619	-23.500160	63.657051	-63.825306	-39.040363
-0.777992	-120.321420	-63.741467	-36.927307	-31.411152	-122.594990
4800000000	-25.097704	-145.240110	-53.757949	-0.636783	-0.783737	-130.493650
-53.727107	-0.618430	-23.443142	56.455753	-63.212306	-46.489445
-0.781361	-130.489620	-63.114924	-46.872265	-31.404184	-144.751770
4900000000	-24.664532	-160.159270	-53.566720	-11.051355	-0.787942	-140.655810
-53.615456	-10.883279	-23.427860	49.224411	-62.920151	-55.880806
-0.786157	-140.655840	-62.664456	-55.802086	-31.111294	-166.051150
5000000000	-24.152454	-174.410280	-53.481092	-20.705006	-0.793402	-150.829360
-53.501863	-20.364904	-23.459000	41.887806	-62.720918	-66.269318
-0.790437	-150.825520	-62.308267	-65.863777	-30.673988	172.946820
5100000000	-23.645971	172.284270	-53.377850	-30.621849	-0.800403	-160.987050
-53.398496	-30.702049	-23.528603	34.595985	-62.506127	-77.222031
-0.798081	-160.984990	-62.508096	-76.607964	-30.069523	154.228710
5200000000	-23.168482	159.593660	-53.334273	-39.250214	-0.806810	-171.142670
-53.334635	-39.762978	-23.632692	27.323622	-62.395945	-86.917809
-0.804410	-171.141310	-62.503558	-87.375641	-29.431004	137.307210
5300000000	-22.720339	147.788620	-53.087508	-48.744770	-0.813962	178.704380
-53.192584	-49.077137	-23.764894	20.092934	-62.593043	-97.944420
-0.811544	178.706380	-62.304705	-98.560692	-28.862255	121.631630
5400000000	-22.342106	136.530120	-53.184235	-57.865139	-0.821691	168.565580
-53.140713	-57.929596	-23.949020	12.856856	-62.517792	-108.309800
-0.820842	168.565220	-62.435406	-108.960820	-28.347868	107.618970
5500000000	-22.005436	125.886170	-53.097434	-67.497101	-0.829546	158.429290
-53.053302	-67.548332	-24.141529	5.655592	-62.595317	-118.204740
-0.827703	158.428830	-62.395854	-120.201020	-27.896608	94.442879
5600000000	-21.730276	115.597860	-52.986590	-76.809578	-0.837922	148.301530
-52.930682	-76.330856	-24.386959	-1.590160	-62.405879	-128.986650
-0.836614	148.301990	-62.385303	-129.006070	-27.625189	81.721024
5700000000	-21.494974	105.920280	-52.889667	-86.179077	-0.845696	138.174960
-53.007625	-85.701622	-24.669043	-8.987781	-62.608627	-139.012830
-0.843873	138.178880	-62.610347	-141.417050	-27.508945	69.705193
5800000000	-21.342579	96.871437	-52.852369	-94.962524	-0.853663	128.057750
-52.839414	-94.832954	-24.982388	-16.447357	-62.748308	-150.035260
-0.851268	128.061080	-62.862008	-149.712750	-27.591463	58.337280
5900000000	-21.229059	88.149185	-52.743656	-104.018830	-0.860325	117.945100
-52.736286	-103.766060	-25.346899	-24.041639	-62.880009	-161.230260
-0.858945	117.948910	-62.706818	-160.468800	-27.832863	47.738106
6000000000	-21.170750	79.945274	-52.669844	-112.972310	-0.866690	107.830250
-52.671286	-113.103060	-25.747105	-31.701900	-62.998976	-171.241130
-0.864497	107.832770	-62.883619	-171.321990	-28.277773	37.654053
6100000000	-21.153151	72.076553	-52.643208	-122.310230	-0.873612	97.720085
-52.640401	-122.465260	-26.193878	-39.464745	-63.049027	178.743640
-0.871357	97.719841	-63.323052	177.707490	-28.887445	27.886652
6200000000	-21.145794	64.746780	-52.622434	-130.983510	-0.880682	87.613846
-52.571180	-131.031650	-26.688824	-47.418953	-63.349264	167.059300
-0.878613	87.616066	-63.414831	166.332370	-29.732544	18.756767
6300000000	-21.165455	57.685204	-52.588312	-140.189530	-0.884820	77.506615
-52.581671	-140.415190	-27.221241	-55.528393	-63.617742	156.279190
-0.883607	77.507874	-63.659758	154.012300	-30.863564	10.231254
6400000000	-21.209866	51.123562	-52.490905	-149.002720	-0.890682	67.402924
-52.508784	-149.023320	-27.844044	-63.922588	-64.015765	144.225360
-0.889044	67.405434	-63.885333	143.204390	-32.475773	3.856623
6500000000	-21.245670	44.783382	-52.501072	-158.728100	-0.895495	57.289036
-52.508259	-158.257950	-28.517727	-72.842735	-64.610051	133.679870
-0.893455	57.292694	-64.437306	131.278020	-34.522545	-0.709516
6600000000	-21.268791	38.833168	-52.560898	-166.994660	-0.900939	47.186535
-52.660477	-166.619640	-29.211250	-82.339737	-64.923131	121.067700
-0.898422	47.188435	-64.920346	120.863010	-37.189774	1.522168
6700000000	-21.294666	33.191261	-52.718686	-175.652220	-0.905678	37.085613
-52.674786	-175.102420	-29.975338	-92.250565	-66.029439	108.037970
-0.903835	37.085064	-66.013981	108.604290	-40.321857	16.207449
6800000000	-21.273638	27.504196	-52.770359	177.092220	-0.911256	26.978506
-52.718704	177.315750	-30.791101	-103.061790	-67.506149	95.997665
-0.908755	26.978409	-67.352272	96.704796	-41.123768	48.065712
6900000000	-21.249275	21.918703	-52.777958	170.671680	-0.916557	16.878061
-52.795147	170.339980	-31.618551	-114.528210	-70.121059	86.906532
-0.914168	16.879112	-69.267498	83.937119	-38.082066	70.505295
7000000000	-21.175758	16.171698	-52.533396	164.833630	-0.920619	6.779228
-52.447497	164.783950	-32.479332	-126.927310	-73.378267	87.114006
-0.918644	6.781482	-72.967226	91.841225	-34.850620	75.814209
7100000000	-21.057552	10.246054	-51.960642	157.103420	-0.924854	-3.316666
-51.980761	157.631730	-33.244984	-140.026540	-74.084082	118.354170
-0.922557	-3.319493	-73.370222	116.626270	-32.265026	74.187233
7200000000	-20.910130	3.997919	-51.413291	148.289440	-0.928627	-13.414717
-51.382930	148.826920	-33.961273	-154.813170	-70.461727	126.547970
-0.926827	-13.412138	-70.642093	121.453290	-30.357178	68.642189
7300000000	-20.774323	-2.716276	-50.980639	137.906420	-0.932954	-23.516020
-50.968039	137.927780	-34.423714	-170.316350	-68.420496	114.621630
-0.931184	-23.518789	-68.034182	111.325000	-28.915363	61.408352
7400000000	-20.634226	-9.817696	-50.740987	127.524350	-0.936915	-33.613201
-50.693837	127.679230	-34.683182	172.831280	-66.954457	103.724230
-0.934470	-33.612167	-67.389363	104.749530	-27.741377	54.100101
7500000000	-20.502085	-17.251648	-50.659883	117.309630	-0.941079	-43.710472
-50.530672	117.022700	-34.605846	155.373060	-66.760461	92.777534
-0.939071	-43.712414	-66.184160	92.518677	-26.770044	46.258015
7600000000	-20.386829	-25.258749	-50.448611	107.219470	-0.945439	-53.808098
-50.395751	106.787500	-34.286324	138.849350	-66.062003	80.103226
-0.944258	-53.810970	-65.775801	81.214760	-26.015356	38.312611
7700000000	-20.296919	-33.721073	-50.344236	97.153389	-0.950246	-63.900230
-50.307412	96.924187	-33.783092	123.809760	-65.752721	72.071327
-0.947961	-63.899876	-65.533307	70.459671	-25.454430	30.033001
7800000000	-20.215719	-42.602898	-50.233092	86.971565	-0.953112	-74.003525
-50.206305	87.165237	-33.158878	109.338710	-65.158595	60.960251
-0.951708	-74.002266	-65.468165	60.492085	-24.998068	22.088732
7900000000	-20.188133	-51.953720	-50.184850	77.875282	-0.957678	-84.095879
-50.122125	77.623650	-32.539619	96.556580	-64.940515	51.741619
-0.954454	-84.095863	-65.247903	52.781422	-24.694586	13.973227
8000000000	-20.189856	-61.628605	-50.078980	67.790550	-0.960763	-94.191605
-50.059494	67.696457	-31.939289	84.420181	-64.512242	42.734035
-0.958602	-94.193756	-64.557667	43.323231	-24.502316	6.066272
8100000000	-20.205711	-71.893127	-49.971709	58.267532	-0.963843	-104.289820
-50.013564	58.144478	-31.256201	73.357010	-63.810725	32.037727
-0.960581	-104.293910	-64.130512	32.112492	-24.447031	-1.520618
8200000000	-20.260239	-82.471718	-49.918403	48.415245	-0.966169	-114.387140
-49.861076	47.765625	-30.702679	62.901680	-63.426814	17.033779
-0.964491	-114.389410	-63.550441	15.686578	-24.458792	-8.674805
8300000000	-20.348343	-93.519714	-49.845866	37.629360	-0.968983	-124.491520
-49.830576	37.650124	-30.193144	52.912560	-64.223219	2.114541
-0.967726	-124.493010	-63.968100	0.774951	-24.574530	-16.122860
8400000000	-20.413654	-104.925030	-49.906150	27.156319	-0.968776	-134.600740
-49.906494	27.638638	-29.709679	43.832764	-64.414905	-6.640044
-0.968167	-134.597560	-64.565952	-5.597397	-24.754204	-23.188498
8500000000	-20.498369	-116.672550	-50.039586	17.868900	-0.970508	-144.711150
-49.971391	17.700827	-29.319632	34.675751	-64.471662	-15.970558
-0.970112	-144.707900	-64.557141	-15.704104	-25.029016	-29.540575
8600000000	-20.586906	-128.751040	-50.145128	8.122306	-0.973508	-154.828830
