!Keysight Technologies,P5022A,MY58100238,A.14.30.03
!Date: Monday, August 28, 2023 15:31:52
!Correction: S11(C  3-Port  ) 
!S12(C  3-Port  ) 
!S13(C  3-Port  ) 
!S21(C  3-Port  ) 
!S22(C  3-Port  ) 
!S23(C  3-Port  ) 
!S31(C  3-Port  ) 
!S32(C  3-Port  ) 
!S33(C  3-Port  ) 
!S3P File: Measurement: :
!Deduct Board Loss
# Hz S  dB   R 50
9000	-23.898672	-9.454124	-88.152248	52.296402	-0.563023	0.492024
-94.980267	152.446410	-21.190575	176.696060	-92.517986	11.627313
-0.559738	0.497068	-97.896710	56.163906	-23.529980	-9.233469
10000	-23.875042	-7.582295	-96.849313	-19.819508	-0.563856	0.381345
-94.581933	-68.086807	-21.173531	176.914610	-102.934660	69.525497
-0.562434	0.378114	-93.871430	8.705598	-23.676888	-7.733945
100000	-24.440487	0.434404	-108.272438	-7.353501	-0.554659	-0.078827
-103.789618	-10.002649	-21.148304	179.778460	-105.632228	-87.793083
-0.555262	-0.072227	-109.765478	-19.267757	-24.406300	0.163239
200000	-24.465452	0.178407	-113.035619	31.077587	-0.553205	-0.060984
-103.298119	-6.477912	-21.151894	179.869550	-109.126269	85.805000
-0.553034	-0.054890	-115.308569	-64.905632	-24.432034	0.145533
300000	-24.458858	0.199108	-100.903200	23.069975	-0.553800	-0.055266
-104.783260	-30.207922	-21.152817	179.907670	-108.070850	-34.701847
-0.552981	-0.053182	-104.127560	9.154743	-24.436258	0.121229
400000	-24.468130	0.091426	-96.327646	28.625158	-0.552731	-0.063590
-105.646673	39.385223	-21.149633	179.891660	-107.205653	-40.571388
-0.552335	-0.058468	-98.977442	19.802582	-24.420958	0.156768
500000	-24.468771	0.020039	-103.735040	-3.878924	-0.553288	-0.072637
-103.140610	-31.195707	-21.148073	179.892030	-121.767710	-67.281075
-0.553214	-0.066202	-104.622130	2.712344	-24.417168	0.052624
600000	-24.468353	0.008129	-105.905348	3.782542	-0.553470	-0.081314
-109.900808	13.000406	-21.148794	179.865600	-116.546978	-50.583099
-0.553866	-0.073163	-113.761228	13.586821	-24.412693	-0.022299
700000	-24.458780	-0.092003	-98.878636	16.669615	-0.553137	-0.094779
-107.951456	14.244645	-21.149267	179.867290	-114.983156	3.299926
-0.553107	-0.088692	-100.814836	17.016392	-24.406584	0.016919
800000	-24.455261	-0.142343	-99.664864	28.251345	-0.553918	-0.107115
-109.234455	14.447741	-21.152340	179.844410	-108.746775	5.509801
-0.552886	-0.101582	-103.152965	31.261732	-24.401642	-0.093066
900000	-24.449339	-0.328911	-101.395900	20.179272	-0.552671	-0.122199
-109.308820	-0.609962	-21.158100	179.858840	-109.831850	-28.565556
-0.552196	-0.117105	-104.162950	8.580545	-24.397104	-0.249315
1000000	-24.475286	-0.246617	-105.405366	-20.361589	-0.552693	-0.132253
-100.138936	3.457739	-21.146805	179.887480	-103.845136	47.003666
-0.551823	-0.125711	-107.441416	-28.440931	-24.421318	-0.191177
2000000	-24.500107	-0.484092	-105.288663	21.186642	-0.552984	-0.253430
-100.986003	23.830395	-21.155672	179.642990	-110.071603	54.705647
-0.549758	-0.246549	-111.464723	-40.126308	-24.416506	-0.291972
3000000	-24.519583	-0.541271	-100.253601	37.932758	-0.552403	-0.370894
-102.789261	46.354275	-21.163935	179.506150	-108.126901	42.266380
-0.549783	-0.371947	-102.766161	57.699089	-24.421099	-0.610179
4000000	-24.521799	-0.706398	-99.010650	31.173285	-0.552155	-0.479456
-101.147385	46.832714	-21.167948	179.392900	-105.017295	62.980812
-0.550702	-0.492283	-103.020235	29.441790	-24.437971	-0.845237
5000000	-24.536171	-0.894979	-102.018626	63.921131	-0.552891	-0.589382
-100.670826	46.464306	-21.171797	179.278210	-104.128096	75.712845
-0.551523	-0.599910	-103.039296	71.989258	-24.463387	-0.926442
6000000	-24.551615	-1.026483	-99.470783	42.593258	-0.552371	-0.706748
-98.880008	50.237885	-21.176136	179.138960	-102.806305	65.557877
-0.551481	-0.711847	-102.635415	60.576477	-24.484827	-1.042024
7000000	-24.574980	-1.110705	-98.963926	50.773808	-0.552557	-0.817525
-98.527150	66.631454	-21.179148	179.018130	-102.365946	67.235184
-0.552418	-0.823581	-103.757746	66.588814	-24.498356	-1.008263
8000000	-24.573322	-1.169057	-96.805143	55.723320	-0.552534	-0.927863
-98.129529	61.329288	-21.178438	178.889300	-100.459722	71.105019
-0.551881	-0.934504	-100.793222	65.515709	-24.511841	-1.072202
9000000	-24.590183	-1.289297	-96.862553	73.490913	-0.553346	-1.040774
-96.540425	66.355957	-21.181667	178.741650	-100.017108	78.624077
-0.553326	-1.045039	-98.928403	86.016479	-24.520908	-1.062069
10000000	-24.585638	-1.333072	-97.962495	68.756363	-0.552597	-1.145125
-96.788514	69.984657	-21.186852	178.679660	-97.892586	79.249649
-0.552964	-1.157545	-99.435647	71.873672	-24.533411	-1.129733
20000000	-24.640242	-2.110093	-89.473408	76.952713	-0.554075	-2.237799
-89.758343	79.954597	-21.210135	177.484220	-90.893292	86.797295
-0.553460	-2.233891	-90.559285	84.259209	-24.576508	-1.764317
30000000	-24.627052	-3.155947	-85.312866	73.544571	-0.555213	-3.284328
-85.218437	73.472878	-21.224058	176.333010	-86.925423	76.008926
-0.555526	-3.292677	-86.472542	78.116379	-24.583864	-2.439272
40000000	-24.590471	-4.005823	-82.796028	67.402687	-0.555873	-4.347311
-82.992820	66.299652	-21.246588	175.222440	-84.124336	69.764755
-0.555386	-4.352447	-84.262725	71.312103	-24.536407	-3.323833
50000000	-24.564846	-5.211324	-81.241499	62.975616	-0.555278	-5.405627
-81.368780	62.501518	-21.269163	174.161620	-82.840201	60.720917
-0.555894	-5.402061	-82.461142	61.769173	-24.502989	-4.388457
60000000	-24.524866	-6.530364	-80.086917	57.901325	-0.555260	-6.463374
-80.393328	57.388214	-21.290874	173.126080	-81.595690	57.923340
-0.555708	-6.456015	-81.252627	56.334648	-24.474247	-5.446387
70000000	-24.499603	-7.715982	-79.291623	53.435127	-0.554789	-7.513913
-79.378239	52.788578	-21.315590	172.096180	-80.727597	52.828651
-0.554197	-7.502004	-80.404606	52.775394	-24.436346	-6.677754
80000000	-24.460693	-9.000610	-78.656408	50.700661	-0.555284	-8.558305
-78.916800	51.014118	-21.342319	171.081670	-80.170889	48.030754
-0.554268	-8.550465	-79.843077	48.341892	-24.399391	-7.816555
90000000	-24.433910	-10.287432	-78.146772	48.796352	-0.554430	-9.601771
-78.325407	47.871033	-21.371418	170.026580	-79.797163	45.213051
-0.553633	-9.598746	-79.383764	44.844814	-24.367636	-8.910351
100000000	-24.390093	-11.495504	-77.688100	46.551723	-0.554233	-10.645505
-78.068074	46.690548	-21.389553	168.978530	-79.342732	41.646351
-0.553512	-10.640691	-78.960698	42.338123	-24.324999	-10.033898
