!File name = QPA2962_SN63_22v1680ma_25C.s2p
!Base file name = QPA2962_SN63
!Date = 8/1/2020
!Time = 8:25 PM
!Test duration(min) = 0.48
!Test = S-Parameters
!MPTS version = 8.91.5
!State File = C:\data\QPA2962\20200608083801\State_Cal\SPARM\QPA2962_SPARM_3Temp_F1_40_p1_Pn20.sta
!Cal File = 
!ComputerName = CMPE-LAB-12
!Comments = Ref_TRL_QPA2962_SAP293660
!Z0 = 50
!Input Power(dBm) = -20.00
!SN = 63
!Wafer = NA
!RC = NA
!CKT = NA
!VD = 22
!ID = 1680
!TEMP = 25
!COND = SPARM
!SWEEP = FRQ
!PULSE = CW
!set_Vg(v) = -3.500
!set_Vd(v) = 22.000
!set_Vd(mA) = 1680.000
!set_temp(c) = -28.0
!file_name = QPA2962_SN63_22v1680ma_25C.s2p
!date_code = 20200801
!Test condition label = 22v1680ma_25C
!Vg(V) = -1.872
!Vg(mA) = -0.010
!VD_DMM(V) = 21.996000
!ID_DMM(mA) = 1679.456000
!TEMP(V) = -0.015700
!Temp(C) = -26.70
# GHz   S   DB   R   50
!%	Freq(GHz)	     s11(dB)	    s11(deg)	     s21(dB)	    s21(deg)	     s12(dB)	    s12(deg)	     s22(dB)	    s22(deg)
	1.000000000	      -9.787	     178.314	      -8.983	     -48.970	     -74.379	     134.244	      -0.342	     -80.933
	1.100000000	     -10.131	     170.996	      -4.290	     -70.726	     -73.216	     128.036	      -0.443	     -90.900
	1.200000000	     -10.492	     164.186	      -0.012	     -92.505	     -72.527	     128.190	      -0.601	    -101.712
	1.300000000	     -10.872	     157.714	       3.930	    -115.179	     -71.083	     120.355	      -0.857	    -113.728
	1.400000000	     -11.285	     151.670	       7.560	    -138.747	     -70.337	     113.756	      -1.273	    -127.175
	1.500000000	     -11.735	     145.999	      10.823	    -164.084	     -69.688	     121.275	      -1.956	    -142.476
	1.600000000	     -12.194	     140.808	      13.644	     169.288	     -68.590	     118.307	      -3.078	    -159.826
	1.700000000	     -12.666	     135.935	      15.893	     141.190	     -66.731	     116.038	      -4.875	    -179.143
	1.800000000	     -13.126	     131.377	      17.521	     113.254	     -65.511	     112.890	      -7.648	     159.863
	1.900000000	     -13.574	     127.151	      18.578	      86.407	     -64.717	     102.854	     -11.833	     136.509
	2.000000000	     -14.003	     123.040	      19.163	      61.541	     -64.098	      95.230	     -18.408	     103.469
	2.100000000	     -14.372	     119.152	      19.474	      39.019	     -63.604	      90.755	     -24.289	      16.161
	2.200000000	     -14.660	     114.938	      19.609	      18.562	     -63.335	      85.873	     -18.602	     -44.174
	2.300000000	     -14.924	     110.296	      19.664	      -0.093	     -63.224	      80.305	     -15.089	     -66.761
	2.400000000	     -15.199	     105.293	      19.658	     -17.467	     -62.671	      75.299	     -13.175	     -81.663
	2.500000000	     -15.536	     100.050	      19.627	     -33.668	     -62.725	      72.926	     -12.047	     -93.772
	2.600000000	     -15.909	      94.442	      19.571	     -48.936	     -62.616	      71.035	     -11.401	    -104.381
	2.700000000	     -16.333	      88.740	      19.493	     -63.424	     -62.354	      65.177	     -11.040	    -114.004
	2.800000000	     -16.826	      82.924	      19.401	     -77.147	     -62.288	      60.436	     -10.889	    -122.987
	2.900000000	     -17.368	      77.107	      19.306	     -90.189	     -62.702	      58.915	     -10.881	    -131.469
	3.000000000	     -17.958	      71.411	      19.219	    -102.634	     -62.682	      53.226	     -10.988	    -139.648
	3.100000000	     -18.574	      65.852	      19.135	    -114.658	     -62.912	      47.983	     -11.207	    -147.529
	3.200000000	     -19.198	      60.189	      19.061	    -126.211	     -63.167	      44.784	     -11.521	    -155.218
	3.300000000	     -19.853	      54.332	      18.998	    -137.390	     -63.365	      43.643	     -11.934	    -162.728
	3.400000000	     -20.516	      48.475	      18.957	    -148.240	     -63.644	      39.096	     -12.449	    -170.148
	3.500000000	     -21.170	      42.332	      18.920	    -158.833	     -63.886	      37.007	     -13.059	    -177.388
	3.600000000	     -21.876	      35.761	      18.905	    -169.168	     -64.541	      32.390	     -13.771	     175.507
	3.700000000	     -22.644	      29.246	      18.905	    -179.347	     -65.076	      31.359	     -14.570	     168.331
	3.800000000	     -23.450	      22.806	      18.918	     170.598	     -66.157	      29.162	     -15.466	     161.016
	3.900000000	     -24.213	      16.380	      18.936	     160.661	     -66.233	      29.657	     -16.490	     153.412
	4.000000000	     -24.994	       9.638	      18.948	     150.816	     -66.601	      29.449	     -17.637	     145.574
	4.100000000	     -25.730	       2.416	      18.971	     141.154	     -67.094	      26.177	     -18.965	     136.970
	4.200000000	     -26.470	      -5.228	      19.005	     131.539	     -67.776	      26.067	     -20.498	     127.447
	4.300000000	     -27.231	     -13.440	      19.045	     122.018	     -67.512	      24.644	     -22.245	     116.281
	4.400000000	     -27.956	     -21.491	      19.083	     112.558	     -69.410	      17.275	     -24.141	     102.491
	4.500000000	     -28.658	     -29.956	      19.125	     103.163	     -70.043	      15.019	     -26.139	      83.865
	4.600000000	     -29.249	     -39.251	      19.165	      93.890	     -73.405	      26.801	     -27.669	      58.280
	4.700000000	     -29.746	     -50.096	      19.221	      84.680	     -72.577	      38.968	     -28.109	      28.608
	4.800000000	     -30.079	     -62.231	      19.285	      75.463	     -71.582	      35.908	     -27.146	       2.290
	4.900000000	     -30.138	     -75.366	      19.348	      66.234	     -70.673	      34.791	     -25.587	     -17.946
	5.000000000	     -30.042	     -89.031	      19.406	      57.103	     -71.309	      20.598	     -23.965	     -32.867
	5.100000000	     -28.203	     -74.595	      19.472	      48.055	     -72.989	      10.144	     -20.831	     -36.754
	5.200000000	     -27.542	     -81.577	      19.540	      38.937	     -76.055	      13.200	     -19.751	     -44.494
	5.300000000	     -26.919	     -88.771	      19.611	      29.831	     -77.149	      -1.255	     -18.909	     -51.384
	5.400000000	     -26.259	     -95.975	      19.683	      20.757	     -78.431	      -7.740	     -18.226	     -57.499
	5.500000000	     -25.588	    -102.600	      19.754	      11.674	     -80.036	     -38.634	     -17.666	     -63.355
	5.600000000	     -24.982	    -108.183	      19.823	       2.604	     -76.181	     -79.680	     -17.200	     -68.700
	5.700000000	     -24.344	    -113.307	      19.898	      -6.479	     -75.843	    -105.343	     -16.776	     -74.065
	5.800000000	     -23.653	    -118.011	      19.965	     -15.591	     -73.369	    -139.368	     -16.406	     -79.592
	5.900000000	     -22.956	    -122.995	      20.035	     -24.623	     -70.845	    -148.923	     -16.096	     -85.183
	6.000000000	     -22.295	    -128.343	      20.107	     -33.786	     -68.740	    -170.805	     -15.870	     -91.395
	6.100000000	     -21.801	    -134.004	      20.167	     -42.927	     -69.822	     176.367	     -15.795	     -97.780
	6.200000000	     -21.405	    -138.541	      20.219	     -52.061	     -69.979	    -171.940	     -15.804	    -103.471
	6.300000000	     -20.993	    -142.552	      20.272	     -61.179	     -67.714	    -163.841	     -15.789	    -109.172
	6.400000000	     -20.530	    -146.650	      20.323	     -70.321	     -64.781	    -169.820	     -15.764	    -115.015
	6.500000000	     -20.102	    -151.042	      20.365	     -79.461	     -63.813	    -178.787	     -15.811	    -121.178
	6.600000000	     -19.763	    -155.065	      20.406	     -88.562	     -63.235	     179.930	     -15.880	    -127.070
	6.700000000	     -19.420	    -159.293	      20.441	     -97.751	     -61.854	     173.613	     -15.948	    -133.574
	6.800000000	     -19.161	    -163.894	      20.461	    -106.892	     -61.123	     166.453	     -16.143	    -139.949
	6.900000000	     -18.946	    -168.307	      20.484	    -116.018	     -60.851	     161.945	     -16.353	    -146.165
	7.000000000	     -18.710	    -172.453	      20.497	    -125.141	     -60.367	     161.538	     -16.576	    -151.980
	7.100000000	     -18.524	    -176.663	      20.501	    -134.222	     -59.824	     157.846	     -16.837	    -157.513
	7.200000000	     -18.342	     179.417	      20.505	    -143.318	     -58.889	     156.801	     -17.080	    -162.980
	7.300000000	     -18.161	     175.425	      20.500	    -152.375	     -58.209	     153.375	     -17.385	    -168.317
	7.400000000	     -18.071	     171.264	      20.484	    -161.350	     -57.469	     145.011	     -17.808	    -172.874
	7.500000000	     -18.006	     167.385	      20.468	    -170.278	     -57.264	     139.399	     -18.209	    -176.501
	7.600000000	     -17.951	     163.852	      20.458	    -179.202	     -57.315	     134.633	     -18.656	    -179.869
	7.700000000	     -17.924	     160.415	      20.448	     171.902	     -57.295	     128.859	     -19.126	     177.837
	7.800000000	     -17.868	     156.970	      20.433	     162.988	     -57.440	     124.433	     -19.600	     176.207
	7.900000000	     -17.799	     153.526	      20.411	     154.085	     -57.485	     122.815	     -20.111	     175.605
	8.000000000	     -17.821	     150.267	      20.384	     145.276	     -57.350	     118.843	     -20.621	     176.124
	8.100000000	     -17.804	     147.003	      20.369	     136.487	     -57.244	     114.503	     -21.029	     177.942
	8.200000000	     -17.783	     143.604	      20.351	     127.710	     -57.441	     109.169	     -21.299	    -179.597
	8.300000000	     -17.672	     140.090	      20.327	     118.913	     -57.904	     106.986	     -21.347	    -176.758
	8.400000000	     -17.617	     136.210	      20.310	     110.140	     -57.913	     104.047	     -21.293	    -174.353
	8.500000000	     -17.523	     132.510	      20.287	     101.408	     -58.094	      99.275	     -21.150	    -172.062
	8.600000000	     -17.408	     128.763	      20.270	      92.634	     -58.955	      96.117	     -20.918	    -170.701
	8.700000000	     -17.248	     124.790	      20.240	      83.890	     -59.305	      93.220	     -20.668	    -169.947
	8.800000000	     -17.100	     120.566	      20.220	      75.256	     -60.011	      91.131	     -20.351	    -169.825
	8.900000000	     -16.913	     116.399	      20.202	      66.555	     -60.635	      90.880	     -20.012	    -170.885
	9.000000000	     -16.702	     112.384	      20.192	      57.867	     -61.197	      89.829	     -19.704	    -172.712
	9.100000000	     -16.462	     108.320	      20.177	      49.173	     -61.531	      89.872	     -19.429	    -175.711
	9.200000000	     -16.139	     104.328	      20.163	      40.413	     -62.166	      84.123	     -19.207	    -179.536
	9.300000000	     -15.827	     100.523	      20.144	      31.692	     -63.479	      85.195	     -19.024	     175.825
	9.400000000	     -15.485	      96.237	      20.121	      22.971	     -64.915	      83.473	     -18.889	     170.690
	9.500000000	     -15.139	      92.514	      20.102	      14.272	     -65.978	      87.813	     -18.754	     165.518
	9.600000000	     -14.741	      89.232	      20.080	       5.523	     -67.289	      91.556	     -18.590	     159.583
	9.700000000	     -14.391	      85.948	      20.057	      -3.175	     -70.290	      98.326	     -18.503	     152.982
	9.800000000	     -14.080	      82.808	      20.038	     -11.902	     -70.219	     117.661	     -18.331	     146.743
	9.900000000	     -13.716	      80.112	      20.010	     -20.642	     -69.824	     135.100	     -18.133	     139.881
	10.000000000	     -13.450	      76.977	      19.982	     -29.351	     -70.110	     152.403	     -17.955	     132.714
	10.100000000	     -13.160	      73.868	      19.955	     -38.068	     -68.232	     167.716	     -17.774	     126.055
	10.200000000	     -12.939	      71.254	      19.927	     -46.818	     -65.960	     169.802	     -17.584	     119.906
	10.300000000	     -12.724	      68.489	      19.886	     -55.561	     -64.088	     173.407	     -17.333	     114.251
	10.400000000	     -12.547	      66.426	      19.842	     -64.237	     -62.441	     170.082	     -17.081	     108.938
	10.500000000	     -12.369	      63.752	      19.796	     -72.852	     -61.767	     168.196	     -16.797	     103.572
	10.600000000	     -12.224	      61.174	      19.758	     -81.428	     -61.011	     169.110	     -16.530	      98.858
	10.700000000	     -12.102	      58.490	      19.719	     -90.004	     -60.330	     167.448	     -16.313	      94.384
	10.800000000	     -12.021	      55.971	      19.685	     -98.537	     -59.173	     165.808	     -16.113	      90.492
	10.900000000	     -11.988	      53.393	      19.655	    -107.072	     -58.475	     164.838	     -15.982	      86.903
	11.000000000	     -11.974	      50.645	      19.627	    -115.557	     -57.976	     160.430	     -15.820	      83.642
	11.100000000	     -12.022	      47.776	      19.608	    -124.007	     -57.498	     158.062	     -15.671	      80.751
	11.200000000	     -12.087	      44.620	      19.602	    -132.450	     -57.144	     152.169	     -15.551	      78.023
	11.300000000	     -12.173	      41.037	      19.603	    -140.959	     -57.274	     151.010	     -15.479	      75.369
	11.400000000	     -12.338	      37.439	      19.606	    -149.509	     -57.089	     150.807	     -15.444	      73.285
	11.500000000	     -12.513	      33.569	      19.613	    -158.034	     -56.566	     148.206	     -15.393	      71.234
	11.600000000	     -12.763	      29.476	      19.629	    -166.638	     -56.829	     145.810	     -15.491	      69.299
	11.700000000	     -13.024	      25.478	      19.638	    -175.278	     -56.824	     148.524	     -15.553	      67.839
	11.800000000	     -13.257	      20.764	      19.656	     176.143	     -55.972	     149.274	     -15.619	      66.011
	11.900000000	     -13.532	      15.519	      19.687	     167.498	     -55.526	     145.998	     -15.769	      63.907
	12.000000000	     -13.858	       9.501	      19.720	     158.774	     -55.111	     143.360	     -15.946	      61.884
	12.100000000	     -14.180	       2.916	      19.753	     149.990	     -54.581	     141.489	     -16.193	      59.573
	12.200000000	     -14.516	      -4.452	      19.784	     141.132	     -54.199	     137.075	     -16.553	      57.259
	12.300000000	     -14.829	     -12.121	      19.805	     132.233	     -54.226	     134.025	     -16.953	      54.705
	12.400000000	     -15.063	     -20.216	      19.828	     123.319	     -53.707	     130.462	     -17.432	      51.787
	12.500000000	     -15.204	     -28.620	      19.850	     114.402	     -53.550	     128.790	     -17.912	      48.312
	12.600000000	     -15.274	     -37.574	      19.872	     105.416	     -52.988	     122.099	     -18.591	      44.250
	12.700000000	     -15.307	     -46.534	      19.887	      96.398	     -52.982	     115.188	     -19.364	      40.411
	12.800000000	     -15.317	     -54.710	      19.895	      87.366	     -53.424	     107.522	     -20.138	      36.580
	12.900000000	     -15.181	     -62.011	      19.897	      78.380	     -53.993	     104.206	     -20.756	      31.854
	13.000000000	     -14.932	     -68.930	      19.907	      69.400	     -54.424	     100.785	     -21.318	      25.798
	13.100000000	     -14.667	     -75.363	      19.916	      60.402	     -54.593	      97.796	     -21.844	      18.778
	13.200000000	     -14.391	     -80.915	      19.928	      51.426	     -55.331	      93.079	     -22.077	      11.343
	13.300000000	     -14.069	     -85.925	      19.946	      42.395	     -55.671	      93.265	     -22.125	       2.825
	13.400000000	     -13.843	     -90.444	      19.964	      33.306	     -55.690	      88.032	     -22.071	      -4.059
	13.500000000	     -13.604	     -94.150	      19.979	      24.236	     -56.393	      82.732	     -21.723	      -9.455
	13.600000000	     -13.390	     -97.476	      19.997	      15.105	     -56.777	      80.986	     -21.150	     -14.608
	13.700000000	     -13.179	    -100.424	      20.012	       5.978	     -57.346	      77.853	     -20.539	     -18.686
	13.800000000	     -13.013	    -103.499	      20.031	      -3.186	     -58.088	      73.337	     -19.846	     -21.819
	13.900000000	     -12.841	    -106.488	      20.050	     -12.387	     -59.006	      68.701	     -19.157	     -24.293
	14.000000000	     -12.799	    -109.719	      20.066	     -21.637	     -59.828	      67.078	     -18.473	     -25.842
	14.100000000	     -12.777	    -112.701	      20.080	     -30.898	     -61.050	      64.438	     -17.813	     -26.588
	14.200000000	     -12.871	    -115.919	      20.090	     -40.166	     -61.950	      63.494	     -17.099	     -26.221
	14.300000000	     -13.024	    -118.779	      20.105	     -49.452	     -62.593	      60.729	     -16.355	     -26.101
	14.400000000	     -13.243	    -122.025	      20.123	     -58.784	     -64.029	      57.089	     -15.577	     -26.080
	14.500000000	     -13.524	    -125.501	      20.136	     -68.173	     -65.628	      51.866	     -14.830	     -26.663
	14.600000000	     -13.906	    -129.469	      20.145	     -77.577	     -67.125	      51.312	     -14.147	     -27.212
	14.700000000	     -14.418	    -133.870	      20.154	     -87.015	     -69.698	      44.830	     -13.498	     -28.002
	14.800000000	     -15.033	    -138.126	      20.161	     -96.471	     -70.945	      42.767	     -12.918	     -28.701
	14.900000000	     -15.754	    -143.017	      20.164	    -105.912	     -72.083	      22.591	     -12.392	     -29.569
	15.000000000	     -16.523	    -148.510	      20.168	    -115.399	     -75.726	       5.623	     -11.919	     -30.609
	15.100000000	     -17.324	    -154.885	      20.170	    -124.885	     -74.450	     -41.376	     -11.476	     -31.988
	15.200000000	     -18.259	    -161.910	      20.176	    -134.358	     -71.269	     -81.831	     -11.112	     -33.508
	15.300000000	     -19.203	    -170.942	      20.185	    -143.876	     -68.014	    -108.066	     -10.830	     -35.347
	15.400000000	     -20.150	     178.210	      20.191	    -153.368	     -66.278	    -121.379	     -10.616	     -37.243
	15.500000000	     -21.023	     165.719	      20.214	    -162.857	     -64.221	    -134.022	     -10.497	     -39.393
	15.600000000	     -21.512	     150.874	      20.243	    -172.426	     -63.489	    -142.546	     -10.425	     -41.502
	15.700000000	     -21.575	     136.133	      20.282	     177.926	     -62.191	    -146.952	     -10.452	     -44.088
	15.800000000	     -21.068	     120.678	      20.326	     168.225	     -61.143	    -154.326	     -10.577	     -46.545
	15.900000000	     -20.409	     107.946	      20.375	     158.387	     -60.529	    -159.114	     -10.780	     -49.151
	16.000000000	     -19.577	      96.882	      20.426	     148.462	     -60.158	    -163.130	     -11.077	     -51.798
	16.100000000	     -18.722	      87.882	      20.469	     138.424	     -59.482	    -165.980	     -11.444	     -54.464
	16.200000000	     -17.917	      80.168	      20.514	     128.300	     -58.951	    -170.763	     -11.897	     -57.413
	16.300000000	     -17.240	      73.725	      20.558	     118.042	     -59.052	    -174.472	     -12.463	     -60.539
	16.400000000	     -16.629	      68.653	      20.590	     107.648	     -58.551	    -178.472	     -13.134	     -63.636
	16.500000000	     -16.156	      63.938	      20.607	      97.179	     -58.480	     178.902	     -13.885	     -66.786
	16.600000000	     -15.789	      59.495	      20.607	      86.617	     -58.222	     172.970	     -14.685	     -69.795
	16.700000000	     -15.659	      55.532	      20.584	      75.966	     -58.469	     170.493	     -15.450	     -72.942
	16.800000000	     -15.707	      52.301	      20.536	      65.337	     -58.657	     165.922	     -16.133	     -76.092
	16.900000000	     -15.948	      49.388	      20.472	      54.748	     -59.357	     165.743	     -16.643	     -80.503
