!File name = QPA2962_SN63_22v1680ma_n40C.s2p
!Base file name = QPA2962_SN63
!Date = 8/1/2020
!Time = 8:53 PM
!Test duration(min) = 0.48
!Test = S-Parameters
!MPTS version = 8.91.5
!State File = C:\data\QPA2962\20200608083801\State_Cal\SPARM\QPA2962_SPARM_3Temp_F1_40_p1_Pn20.sta
!Cal File = 
!ComputerName = CMPE-LAB-12
!Comments = Ref_TRL_QPA2962_SAP293660
!Z0 = 50
!Input Power(dBm) = -20.00
!SN = 63
!Wafer = NA
!RC = NA
!CKT = NA
!VD = 22
!ID = 1680
!TEMP = -40
!COND = SPARM
!SWEEP = FRQ
!PULSE = CW
!set_Vg(v) = -3.500
!set_Vd(v) = 22.000
!set_Vd(mA) = 1680.000
!set_temp(c) = -99.0
!file_name = QPA2962_SN63_22v1680ma_n40C.s2p
!date_code = 20200801
!Test condition label = 22v1680ma_n40C
!Vg(V) = -1.853
!Vg(mA) = 0.001
!VD_DMM(V) = 22.007000
!ID_DMM(mA) = 1675.072000
!TEMP(V) = -0.074770
!Temp(C) = -98.60
# GHz   S   DB   R   50
!%	Freq(GHz)	     s11(dB)	    s11(deg)	     s21(dB)	    s21(deg)	     s12(dB)	    s12(deg)	     s22(dB)	    s22(deg)
	1.000000000	      -9.606	     179.124	      -7.354	     -45.019	     -74.959	     138.636	      -0.277	     -79.952
	1.100000000	      -9.943	     171.905	      -2.589	     -66.494	     -73.616	     125.060	      -0.360	     -89.727
	1.200000000	     -10.301	     165.147	       1.755	     -88.025	     -72.797	     122.671	      -0.495	    -100.307
	1.300000000	     -10.681	     158.704	       5.778	    -110.492	     -71.475	     120.485	      -0.716	    -112.077
	1.400000000	     -11.100	     152.688	       9.489	    -133.838	     -70.359	     121.366	      -1.082	    -125.285
	1.500000000	     -11.560	     147.002	      12.851	    -159.094	     -69.652	     114.725	      -1.690	    -140.406
	1.600000000	     -12.035	     141.820	      15.775	     174.286	     -69.067	     120.595	      -2.704	    -157.716
	1.700000000	     -12.527	     136.949	      18.143	     145.879	     -67.171	     116.665	      -4.353	    -177.211
	1.800000000	     -13.010	     132.396	      19.863	     117.455	     -66.161	     110.604	      -6.921	     161.255
	1.900000000	     -13.477	     128.180	      20.978	      89.962	     -64.701	     103.495	     -10.777	     137.000
	2.000000000	     -13.925	     124.126	      21.579	      64.377	     -64.195	      97.756	     -16.521	     103.741
	2.100000000	     -14.314	     120.437	      21.861	      41.330	     -63.650	      92.454	     -22.023	      32.325
	2.200000000	     -14.590	     116.561	      21.960	      20.605	     -63.593	      86.554	     -18.371	     -31.975
	2.300000000	     -14.807	     112.173	      21.985	       1.871	     -63.399	      81.527	     -15.004	     -58.661
	2.400000000	     -15.004	     107.237	      21.978	     -15.587	     -63.025	      76.638	     -13.093	     -75.290
	2.500000000	     -15.262	     101.901	      21.946	     -31.903	     -63.094	      73.900	     -11.953	     -88.322
	2.600000000	     -15.564	      96.206	      21.890	     -47.313	     -62.528	      68.776	     -11.302	     -99.528
	2.700000000	     -15.922	      90.423	      21.807	     -61.969	     -62.695	      65.753	     -10.941	    -109.568
	2.800000000	     -16.341	      84.579	      21.703	     -75.809	     -62.506	      61.495	     -10.790	    -118.875
	2.900000000	     -16.803	      78.838	      21.595	     -88.953	     -62.342	      56.981	     -10.776	    -127.643
	3.000000000	     -17.308	      73.330	      21.494	    -101.479	     -62.615	      54.238	     -10.885	    -136.095
	3.100000000	     -17.837	      68.020	      21.401	    -113.574	     -62.497	      49.443	     -11.109	    -144.215
	3.200000000	     -18.370	      62.657	      21.317	    -125.189	     -62.890	      43.957	     -11.427	    -152.143
	3.300000000	     -18.925	      57.265	      21.243	    -136.418	     -63.546	      42.722	     -11.844	    -159.923
	3.400000000	     -19.481	      51.967	      21.190	    -147.294	     -63.664	      38.738	     -12.370	    -167.623
	3.500000000	     -20.039	      46.530	      21.142	    -157.939	     -63.820	      34.497	     -12.990	    -175.107
	3.600000000	     -20.655	      40.757	      21.116	    -168.291	     -64.501	      32.967	     -13.713	     177.522
	3.700000000	     -21.338	      35.283	      21.104	    -178.496	     -65.483	      29.069	     -14.523	     170.058
	3.800000000	     -22.064	      30.068	      21.104	     171.456	     -65.946	      30.444	     -15.418	     162.418
	3.900000000	     -22.755	      25.080	      21.111	     161.529	     -66.920	      26.112	     -16.443	     154.379
	4.000000000	     -23.470	      19.968	      21.115	     151.675	     -67.208	      28.400	     -17.588	     146.041
	4.100000000	     -24.163	      14.568	      21.126	     142.021	     -67.353	      27.350	     -18.901	     136.879
	4.200000000	     -24.908	       9.130	      21.148	     132.427	     -68.051	      22.822	     -20.404	     126.635
	4.300000000	     -25.731	       3.479	      21.176	     122.949	     -68.590	      24.852	     -22.078	     114.752
	4.400000000	     -26.571	      -1.651	      21.202	     113.529	     -69.824	      21.324	     -23.813	     100.153
	4.500000000	     -27.456	      -7.202	      21.234	     104.195	     -71.378	      17.476	     -25.517	      81.270
	4.600000000	     -28.329	     -12.815	      21.261	      94.974	     -75.118	      32.016	     -26.633	      57.065
	4.700000000	     -29.262	     -19.994	      21.311	      85.849	     -73.316	      55.518	     -26.905	      30.242
	4.800000000	     -30.358	     -28.756	      21.369	      76.731	     -71.893	      53.792	     -26.137	       6.781
	4.900000000	     -31.507	     -40.214	      21.429	      67.611	     -70.826	      47.956	     -24.877	     -12.166
	5.000000000	     -32.729	     -54.608	      21.480	      58.538	     -71.443	      37.305	     -23.528	     -27.039
	5.100000000	     -29.209	     -46.674	      21.540	      49.610	     -72.706	      31.544	     -20.542	     -32.327
	5.200000000	     -28.822	     -55.388	      21.609	      40.595	     -74.289	      36.293	     -19.518	     -40.193
	5.300000000	     -28.458	     -64.950	      21.682	      31.616	     -75.401	      33.866	     -18.717	     -47.267
	5.400000000	     -28.008	     -74.406	      21.759	      22.636	     -76.692	      33.372	     -18.066	     -53.585
	5.500000000	     -27.431	     -83.372	      21.837	      13.640	     -79.235	      35.814	     -17.521	     -59.570
	5.600000000	     -26.817	     -90.728	      21.913	       4.672	     -81.644	     -12.569	     -17.048	     -64.962
	5.700000000	     -26.079	     -97.472	      21.999	      -4.336	     -90.333	     -81.612	     -16.597	     -70.401
	5.800000000	     -25.242	    -103.774	      22.080	     -13.369	     -82.838	    -128.103	     -16.178	     -76.035
	5.900000000	     -24.405	    -110.362	      22.155	     -22.360	     -77.088	    -155.363	     -15.836	     -81.666
	6.000000000	     -23.599	    -117.204	      22.244	     -31.449	     -72.856	    -178.187	     -15.540	     -87.971
	6.100000000	     -23.009	    -124.359	      22.316	     -40.574	     -73.767	     154.885	     -15.427	     -94.507
	6.200000000	     -22.530	    -129.510	      22.378	     -49.680	     -77.558	    -163.763	     -15.394	    -100.146
	6.300000000	     -21.983	    -133.863	      22.446	     -58.761	     -71.518	    -141.949	     -15.306	    -105.809
	6.400000000	     -21.342	    -138.515	      22.510	     -67.902	     -68.198	    -163.201	     -15.204	    -111.740
	6.500000000	     -20.802	    -143.563	      22.563	     -77.060	     -66.896	    -170.848	     -15.177	    -117.990
	6.600000000	     -20.349	    -148.070	      22.611	     -86.176	     -65.740	    -171.901	     -15.170	    -123.997
	6.700000000	     -19.903	    -152.812	      22.660	     -95.365	     -63.997	    -174.510	     -15.141	    -130.632
	6.800000000	     -19.556	    -158.087	      22.687	    -104.550	     -63.093	     176.661	     -15.250	    -137.314
	6.900000000	     -19.267	    -163.041	      22.712	    -113.710	     -62.402	     171.081	     -15.383	    -143.760
	7.000000000	     -18.967	    -167.710	      22.729	    -122.845	     -62.176	     172.196	     -15.528	    -149.846
	7.100000000	     -18.704	    -172.351	      22.736	    -131.979	     -61.033	     170.616	     -15.707	    -155.844
	7.200000000	     -18.441	    -176.765	      22.739	    -141.099	     -59.948	     166.787	     -15.871	    -161.789
	7.300000000	     -18.203	     178.860	      22.732	    -150.158	     -59.080	     163.661	     -16.099	    -167.711
	7.400000000	     -18.084	     174.200	      22.709	    -159.140	     -58.393	     153.640	     -16.475	    -173.041
	7.500000000	     -18.004	     170.029	      22.689	    -168.083	     -57.929	     149.993	     -16.832	    -177.725
	7.600000000	     -17.943	     166.178	      22.678	    -176.951	     -57.882	     144.380	     -17.242	     177.975
	7.700000000	     -17.904	     162.522	      22.666	     174.204	     -57.939	     140.400	     -17.709	     174.405
	7.800000000	     -17.835	     158.923	      22.651	     165.314	     -57.910	     137.034	     -18.216	     171.390
	7.900000000	     -17.755	     155.298	      22.628	     156.462	     -57.612	     136.843	     -18.832	     169.121
	8.000000000	     -17.795	     151.804	      22.602	     147.681	     -57.262	     132.658	     -19.524	     167.827
	8.100000000	     -17.808	     148.491	      22.587	     138.980	     -57.223	     125.767	     -20.254	     168.109
	8.200000000	     -17.815	     144.964	      22.571	     130.264	     -57.075	     122.179	     -20.924	     169.584
	8.300000000	     -17.684	     141.385	      22.558	     121.522	     -57.462	     119.677	     -21.464	     172.292
	8.400000000	     -17.638	     137.323	      22.546	     112.809	     -57.315	     116.429	     -21.896	     175.541
	8.500000000	     -17.542	     133.549	      22.532	     104.103	     -57.535	     112.589	     -22.233	     179.742
	8.600000000	     -17.415	     129.719	      22.522	      95.382	     -57.799	     108.773	     -22.321	    -176.209
	8.700000000	     -17.246	     125.572	      22.506	      86.663	     -58.071	     107.425	     -22.273	    -172.360
	8.800000000	     -17.096	     121.197	      22.490	      78.032	     -58.172	     105.393	     -22.003	    -169.101
	8.900000000	     -16.889	     116.793	      22.482	      69.364	     -58.484	     103.290	     -21.622	    -167.545
	9.000000000	     -16.673	     112.589	      22.485	      60.721	     -58.333	     102.616	     -21.149	    -166.849
	9.100000000	     -16.388	     108.365	      22.480	      51.988	     -58.525	      98.489	     -20.655	    -168.431
	9.200000000	     -16.032	     104.166	      22.474	      43.223	     -58.923	      93.955	     -20.250	    -171.228
	9.300000000	     -15.686	     100.129	      22.464	      34.479	     -59.481	      92.084	     -19.869	    -175.165
	9.400000000	     -15.299	      95.520	      22.451	      25.729	     -60.294	      88.271	     -19.552	    -179.903
	9.500000000	     -14.899	      91.565	      22.438	      16.981	     -60.771	      86.244	     -19.207	     175.198
	9.600000000	     -14.431	      88.139	      22.422	       8.175	     -61.608	      82.582	     -18.838	     169.143
	9.700000000	     -14.027	      84.796	      22.400	      -0.563	     -62.922	      81.698	     -18.563	     162.473
	9.800000000	     -13.681	      81.592	      22.382	      -9.340	     -64.043	      86.779	     -18.205	     155.979
	9.900000000	     -13.293	      78.748	      22.352	     -18.141	     -65.141	      85.057	     -17.835	     148.793
	10.000000000	     -12.991	      75.388	      22.319	     -26.870	     -67.388	      84.491	     -17.502	     141.291
	10.100000000	     -12.672	      72.049	      22.292	     -35.641	     -69.561	      96.887	     -17.189	     134.254
	10.200000000	     -12.424	      69.287	      22.254	     -44.443	     -69.845	     114.713	     -16.870	     127.786
	10.300000000	     -12.189	      66.447	      22.206	     -53.213	     -69.405	     135.151	     -16.478	     121.594
	10.400000000	     -11.996	      64.289	      22.149	     -61.926	     -68.079	     146.732	     -16.120	     115.658
	10.500000000	     -11.800	      61.508	      22.090	     -70.531	     -67.476	     151.022	     -15.755	     109.607
	10.600000000	     -11.637	      58.801	      22.038	     -79.096	     -66.878	     156.324	     -15.423	     104.105
	10.700000000	     -11.491	      56.049	      21.984	     -87.647	     -65.011	     165.172	     -15.149	      98.885
	10.800000000	     -11.395	      53.544	      21.935	     -96.150	     -63.056	     169.578	     -14.899	      94.168
	10.900000000	     -11.348	      50.987	      21.888	    -104.606	     -61.898	     170.329	     -14.717	      89.892
	11.000000000	     -11.317	      48.229	      21.845	    -112.987	     -60.898	     167.522	     -14.516	      85.799
	11.100000000	     -11.342	      45.431	      21.815	    -121.351	     -60.138	     163.964	     -14.352	      82.109
	11.200000000	     -11.372	      42.265	      21.795	    -129.638	     -59.434	     160.768	     -14.208	      78.684
	11.300000000	     -11.430	      38.629	      21.794	    -137.992	     -59.381	     159.159	     -14.143	      75.276
	11.400000000	     -11.570	      35.021	      21.794	    -146.423	     -59.064	     160.358	     -14.126	      72.492
	11.500000000	     -11.716	      31.148	      21.795	    -154.801	     -57.988	     157.504	     -14.089	      69.900
	11.600000000	     -11.919	      27.070	      21.814	    -163.262	     -58.057	     154.798	     -14.203	      67.380
	11.700000000	     -12.156	      23.033	      21.826	    -171.770	     -57.856	     157.473	     -14.319	      65.416
	11.800000000	     -12.366	      18.553	      21.843	     179.784	     -57.079	     157.715	     -14.424	      63.326
	11.900000000	     -12.609	      13.478	      21.879	     171.292	     -56.126	     155.695	     -14.596	      61.023
	12.000000000	     -12.903	       7.649	      21.921	     162.700	     -55.592	     152.597	     -14.817	      58.851
	12.100000000	     -13.181	       1.203	      21.966	     154.045	     -54.799	     149.575	     -15.088	      56.414
	12.200000000	     -13.495	      -6.120	      22.008	     145.262	     -54.388	     144.846	     -15.491	      54.059
	12.300000000	     -13.811	     -13.691	      22.038	     136.418	     -54.385	     141.656	     -15.941	      51.693
	12.400000000	     -14.042	     -21.623	      22.065	     127.582	     -53.932	     136.985	     -16.447	      49.063
	12.500000000	     -14.195	     -29.697	      22.087	     118.778	     -53.905	     136.089	     -16.918	      46.240
	12.600000000	     -14.261	     -38.501	      22.117	     109.901	     -53.252	     128.938	     -17.567	      42.493
	12.700000000	     -14.321	     -47.438	      22.140	     100.986	     -53.105	     123.117	     -18.284	      38.854
	12.800000000	     -14.401	     -55.913	      22.156	      92.043	     -53.473	     114.411	     -19.025	      35.249
	12.900000000	     -14.344	     -63.312	      22.165	      83.155	     -54.111	     112.935	     -19.559	      30.806
	13.000000000	     -14.145	     -70.491	      22.182	      74.268	     -54.253	     109.794	     -20.057	      24.707
	13.100000000	     -13.940	     -77.184	      22.198	      65.370	     -54.502	     105.237	     -20.494	      17.571
	13.200000000	     -13.728	     -82.976	      22.216	      56.497	     -55.014	     102.644	     -20.678	       9.885
	13.300000000	     -13.459	     -88.123	      22.241	      47.583	     -55.152	     101.379	     -20.650	       1.116
	13.400000000	     -13.269	     -92.744	      22.265	      38.608	     -55.177	      97.656	     -20.554	      -6.327
	13.500000000	     -13.072	     -96.499	      22.284	      29.672	     -55.576	      93.459	     -20.200	     -12.410
	13.600000000	     -12.895	     -99.918	      22.314	      20.711	     -55.978	      92.483	     -19.637	     -18.225
	13.700000000	     -12.719	    -103.020	      22.341	      11.740	     -56.269	      89.271	     -19.069	     -23.197
	13.800000000	     -12.576	    -106.224	      22.376	       2.739	     -56.803	      85.501	     -18.471	     -27.192
	13.900000000	     -12.425	    -109.252	      22.412	      -6.293	     -57.327	      82.672	     -17.910	     -30.637
	14.000000000	     -12.407	    -112.523	      22.451	     -15.388	     -57.544	      81.225	     -17.418	     -32.939
	14.100000000	     -12.415	    -115.519	      22.492	     -24.497	     -58.192	      78.816	     -16.980	     -34.324
	14.200000000	     -12.536	    -118.882	      22.532	     -33.658	     -58.436	      76.326	     -16.542	     -34.378
	14.300000000	     -12.719	    -121.953	      22.582	     -42.818	     -58.673	      73.861	     -16.076	     -34.202
	14.400000000	     -12.961	    -125.411	      22.635	     -52.092	     -59.333	      67.837	     -15.568	     -33.662
	14.500000000	     -13.273	    -129.102	      22.686	     -61.453	     -59.608	      64.366	     -15.059	     -33.457
	14.600000000	     -13.713	    -133.401	      22.730	     -70.874	     -60.075	      59.256	     -14.588	     -32.942
	14.700000000	     -14.300	    -138.214	      22.770	     -80.375	     -60.556	      52.780	     -14.105	     -32.361
	14.800000000	     -15.001	    -142.985	      22.803	     -89.898	     -61.189	      44.229	     -13.641	     -31.467
	14.900000000	     -15.815	    -148.449	      22.829	     -99.457	     -61.469	      30.935	     -13.149	     -30.675
	15.000000000	     -16.687	    -154.586	      22.849	    -109.048	     -62.662	      24.001	     -12.650	     -30.123
	15.100000000	     -17.619	    -161.691	      22.864	    -118.654	     -62.607	       7.821	     -12.118	     -30.131
	15.200000000	     -18.700	    -169.709	      22.879	    -128.236	     -63.535	     -11.852	     -11.618	     -30.532
	15.300000000	     -19.774	     179.966	      22.888	    -137.853	     -63.698	     -33.124	     -11.178	     -31.531
	15.400000000	     -20.831	     167.460	      22.891	    -147.445	     -63.620	     -54.142	     -10.788	     -32.824
	15.500000000	     -21.767	     152.765	      22.900	    -156.980	     -63.162	     -72.808	     -10.487	     -34.597
	15.600000000	     -22.163	     135.683	      22.921	    -166.559	     -62.234	     -85.359	     -10.220	     -36.530
	15.700000000	     -21.998	     119.429	      22.947	    -176.166	     -60.841	     -97.466	     -10.046	     -39.099
	15.800000000	     -21.153	     103.834	      22.981	     174.185	     -59.898	    -109.099	      -9.971	     -41.695
	15.900000000	     -20.283	      91.361	      23.024	     164.467	     -59.246	    -119.069	      -9.965	     -44.634
	16.000000000	     -19.309	      80.961	      23.070	     154.672	     -58.441	    -125.351	     -10.056	     -47.795
	16.100000000	     -18.348	      72.614	      23.115	     144.793	     -57.400	    -133.315	     -10.234	     -51.141
	16.200000000	     -17.448	      65.281	      23.165	     134.833	     -56.608	    -141.476	     -10.513	     -54.971
	16.300000000	     -16.673	      58.963	      23.222	     124.770	     -55.940	    -148.205	     -10.925	     -59.079
	16.400000000	     -16.000	      53.943	      23.274	     114.510	     -55.500	    -154.747	     -11.473	     -63.445
	16.500000000	     -15.441	      49.109	      23.315	     104.152	     -54.924	    -161.328	     -12.146	     -68.053
	16.600000000	     -15.005	      44.383	      23.341	      93.697	     -54.411	    -169.387	     -12.928	     -72.872
	16.700000000	     -14.803	      39.606	      23.349	      83.079	     -54.283	    -175.610	     -13.786	     -77.927
	16.800000000	     -14.804	      35.181	      23.324	      72.449	     -54.153	     177.392	     -14.669	     -83.112
	16.900000000	     -15.003	      30.632	      23.279	      61.855	     -54.394	     171.571	     -15.494	     -89.141
