!File name = QPA2962_SN63_22v1680ma_85C.s2p
!Base file name = QPA2962_SN63
!Date = 8/1/2020
!Time = 9:17 PM
!Test duration(min) = 0.48
!Test = S-Parameters
!MPTS version = 8.91.5
!State File = C:\data\QPA2962\20200608083801\State_Cal\SPARM\QPA2962_SPARM_3Temp_F1_40_p1_Pn20.sta
!Cal File = 
!ComputerName = CMPE-LAB-12
!Comments = Ref_TRL_QPA2962_SAP293660
!Z0 = 50
!Input Power(dBm) = -20.00
!SN = 63
!Wafer = NA
!RC = NA
!CKT = NA
!VD = 22
!ID = 1680
!TEMP = 85
!COND = SPARM
!SWEEP = FRQ
!PULSE = CW
!set_Vg(v) = -3.500
!set_Vd(v) = 22.000
!set_Vd(mA) = 1680.000
!set_temp(c) = 37.0
!file_name = QPA2962_SN63_22v1680ma_85C.s2p
!date_code = 20200801
!Test condition label = 22v1680ma_85C
!Vg(V) = -1.899
!Vg(mA) = -0.032
!VD_DMM(V) = 22.001000
!ID_DMM(mA) = 1679.980000
!TEMP(V) = 0.043910
!Temp(C) = 36.50
# GHz   S   DB   R   50
!%	Freq(GHz)	     s11(dB)	    s11(deg)	     s21(dB)	    s21(deg)	     s12(dB)	    s12(deg)	     s22(dB)	    s22(deg)
	1.000000000	      -9.922	     177.829	     -10.699	     -52.184	     -74.002	     128.431	      -0.393	     -81.800
	1.100000000	     -10.274	     170.433	      -6.059	     -74.036	     -74.106	     123.933	      -0.507	     -91.900
	1.200000000	     -10.637	     163.523	      -1.828	     -95.911	     -72.121	     119.918	      -0.684	    -102.873
	1.300000000	     -11.013	     156.948	       2.057	    -118.657	     -71.141	     120.751	      -0.967	    -115.082
	1.400000000	     -11.409	     150.829	       5.628	    -142.316	     -70.582	     120.516	      -1.422	    -128.730
	1.500000000	     -11.831	     145.110	       8.820	    -167.652	     -70.104	     120.165	      -2.163	    -144.211
	1.600000000	     -12.255	     139.904	      11.567	     165.781	     -68.951	     120.562	      -3.364	    -161.641
	1.700000000	     -12.690	     135.008	      13.735	     137.980	     -66.909	     118.465	      -5.267	     179.149
	1.800000000	     -13.110	     130.424	      15.306	     110.464	     -65.279	     113.085	      -8.187	     158.559
	1.900000000	     -13.517	     126.172	      16.334	      84.100	     -64.476	     103.500	     -12.629	     136.043
	2.000000000	     -13.914	     122.032	      16.919	      59.732	     -63.738	      96.365	     -20.010	     103.520
	2.100000000	     -14.270	     118.062	      17.253	      37.527	     -63.585	      89.967	     -25.735	      -2.032
	2.200000000	     -14.583	     113.760	      17.409	      17.248	     -63.117	      87.708	     -18.501	     -54.233
	2.300000000	     -14.909	     109.094	      17.479	      -1.337	     -63.105	      81.958	     -14.980	     -73.751
	2.400000000	     -15.267	     104.139	      17.474	     -18.594	     -62.894	      78.785	     -13.087	     -87.430
	2.500000000	     -15.681	      98.998	      17.446	     -34.680	     -62.460	      74.523	     -11.971	     -98.843
	2.600000000	     -16.128	      93.470	      17.394	     -49.807	     -62.517	      71.658	     -11.328	    -108.967
	2.700000000	     -16.622	      87.823	      17.325	     -64.158	     -62.453	      63.837	     -10.970	    -118.214
	2.800000000	     -17.196	      81.957	      17.243	     -77.777	     -62.248	      60.332	     -10.824	    -126.826
	2.900000000	     -17.831	      75.986	      17.160	     -90.724	     -62.377	      57.177	     -10.817	    -134.953
	3.000000000	     -18.527	      70.018	      17.087	    -103.105	     -62.373	      55.934	     -10.928	    -142.792
	3.100000000	     -19.247	      64.048	      17.015	    -115.067	     -62.750	      49.207	     -11.149	    -150.352
	3.200000000	     -19.969	      57.870	      16.952	    -126.573	     -62.981	      47.844	     -11.470	    -157.733
	3.300000000	     -20.717	      51.358	      16.901	    -137.706	     -63.571	      44.078	     -11.886	    -164.959
	3.400000000	     -21.472	      44.653	      16.871	    -148.541	     -63.642	      42.466	     -12.404	    -172.082
	3.500000000	     -22.209	      37.486	      16.845	    -159.104	     -63.745	      39.274	     -13.017	    -179.013
	3.600000000	     -22.984	      29.530	      16.841	    -169.428	     -64.197	      35.193	     -13.733	     174.188
	3.700000000	     -23.813	      21.383	      16.852	    -179.601	     -64.811	      31.316	     -14.537	     167.374
	3.800000000	     -24.664	      12.969	      16.874	     170.332	     -65.601	      30.141	     -15.435	     160.496
	3.900000000	     -25.433	       4.348	      16.901	     160.384	     -65.850	      31.929	     -16.459	     153.419
	4.000000000	     -26.161	      -4.899	      16.922	     150.545	     -66.035	      32.132	     -17.604	     146.137
	4.100000000	     -26.736	     -14.667	      16.956	     140.868	     -66.544	      28.497	     -18.947	     138.218
	4.200000000	     -27.205	     -24.991	      16.996	     131.239	     -66.790	      24.280	     -20.516	     129.565
	4.300000000	     -27.559	     -35.954	      17.046	     121.677	     -66.831	      23.450	     -22.361	     119.552
	4.400000000	     -27.807	     -46.532	      17.093	     112.180	     -67.996	      17.471	     -24.485	     107.130
	4.500000000	     -27.907	     -56.999	      17.142	     102.735	     -68.739	       6.548	     -26.939	      89.730
	4.600000000	     -27.792	     -67.445	      17.191	      93.410	     -71.773	      16.175	     -29.217	      63.047
	4.700000000	     -27.538	     -77.754	      17.253	      84.136	     -71.201	      23.987	     -30.057	      27.859
	4.800000000	     -27.126	     -87.637	      17.322	      74.839	     -71.223	      23.708	     -28.692	      -3.642
	4.900000000	     -26.590	     -96.746	      17.383	      65.541	     -70.892	      17.550	     -26.582	     -25.318
	5.000000000	     -26.063	    -105.676	      17.445	      56.352	     -71.137	       0.222	     -24.544	     -39.992
	5.100000000	     -25.356	     -94.561	      17.515	      47.236	     -72.412	     -20.129	     -21.216	     -41.736
	5.200000000	     -24.711	     -99.199	      17.582	      38.034	     -74.687	     -32.470	     -20.038	     -49.099
	5.300000000	     -24.119	    -104.174	      17.648	      28.844	     -76.985	     -43.547	     -19.146	     -55.536
	5.400000000	     -23.544	    -109.234	      17.715	      19.695	     -75.140	     -66.094	     -18.430	     -61.335
	5.500000000	     -23.012	    -114.028	      17.781	      10.551	     -75.460	     -87.382	     -17.865	     -66.827
	5.600000000	     -22.563	    -118.373	      17.843	       1.424	     -72.328	    -108.937	     -17.412	     -71.910
	5.700000000	     -22.119	    -122.468	      17.910	      -7.722	     -70.264	    -125.316	     -17.011	     -77.026
	5.800000000	     -21.631	    -126.274	      17.965	     -16.858	     -68.122	    -144.270	     -16.681	     -82.318
	5.900000000	     -21.134	    -130.435	      18.028	     -25.943	     -66.198	    -150.793	     -16.416	     -87.807
	6.000000000	     -20.656	    -135.090	      18.086	     -35.125	     -65.492	    -167.389	     -16.252	     -93.905
	6.100000000	     -20.298	    -139.934	      18.139	     -44.277	     -66.435	    -177.034	     -16.223	    -100.186
	6.200000000	     -20.007	    -144.239	      18.183	     -53.428	     -65.923	    -173.747	     -16.282	    -105.927
	6.300000000	     -19.732	    -148.163	      18.225	     -62.563	     -64.374	    -171.370	     -16.343	    -111.688
	6.400000000	     -19.429	    -152.037	      18.264	     -71.693	     -62.466	    -177.054	     -16.386	    -117.460
	6.500000000	     -19.118	    -156.138	      18.296	     -80.813	     -61.625	     174.301	     -16.498	    -123.551
	6.600000000	     -18.870	    -159.939	      18.331	     -89.902	     -60.812	     173.054	     -16.610	    -129.392
	6.700000000	     -18.619	    -163.936	      18.355	     -99.054	     -60.002	     167.379	     -16.743	    -135.780
	6.800000000	     -18.424	    -168.117	      18.370	    -108.133	     -59.395	     160.497	     -16.980	    -141.876
	6.900000000	     -18.276	    -172.200	      18.388	    -117.249	     -59.013	     155.395	     -17.238	    -147.915
	7.000000000	     -18.113	    -176.051	      18.396	    -126.344	     -58.807	     151.674	     -17.514	    -153.384
	7.100000000	     -18.006	    -179.957	      18.399	    -135.371	     -58.489	     148.847	     -17.813	    -158.334
	7.200000000	     -17.901	     176.422	      18.401	    -144.442	     -57.936	     145.893	     -18.098	    -163.151
	7.300000000	     -17.791	     172.687	      18.394	    -153.469	     -57.348	     143.862	     -18.442	    -167.559
	7.400000000	     -17.741	     168.869	      18.382	    -162.426	     -56.665	     134.484	     -18.869	    -171.092
	7.500000000	     -17.720	     165.135	      18.369	    -171.357	     -56.630	     129.880	     -19.235	    -173.573
	7.600000000	     -17.709	     161.688	      18.358	     179.722	     -56.340	     123.568	     -19.650	    -175.716
	7.700000000	     -17.717	     158.257	      18.350	     170.814	     -56.472	     118.320	     -20.021	    -176.649
	7.800000000	     -17.701	     154.761	      18.333	     161.891	     -56.816	     113.964	     -20.372	    -176.912
	7.900000000	     -17.663	     151.243	      18.307	     152.964	     -57.265	     111.149	     -20.679	    -176.140
	8.000000000	     -17.695	     147.846	      18.280	     144.158	     -57.151	     106.762	     -20.898	    -174.602
	8.100000000	     -17.681	     144.450	      18.262	     135.337	     -57.368	     103.274	     -20.942	    -172.466
	8.200000000	     -17.657	     140.900	      18.239	     126.534	     -57.489	      97.790	     -20.847	    -170.423
	8.300000000	     -17.563	     137.354	      18.209	     117.740	     -58.209	      93.276	     -20.561	    -168.882
	8.400000000	     -17.497	     133.461	      18.184	     108.947	     -58.414	      88.749	     -20.263	    -168.139
	8.500000000	     -17.411	     129.735	      18.157	     100.228	     -58.843	      85.485	     -19.945	    -167.919
	8.600000000	     -17.304	     126.043	      18.131	      91.442	     -59.840	      80.114	     -19.639	    -168.477
	8.700000000	     -17.151	     122.255	      18.093	      82.737	     -60.864	      76.475	     -19.361	    -169.471
	8.800000000	     -17.008	     118.326	      18.068	      74.113	     -62.049	      73.062	     -19.075	    -171.040
	8.900000000	     -16.836	     114.582	      18.044	      65.435	     -63.352	      73.258	     -18.813	    -173.390
	9.000000000	     -16.642	     111.042	      18.025	      56.763	     -64.962	      73.492	     -18.604	    -176.309
	9.100000000	     -16.432	     107.449	      18.005	      48.115	     -66.550	      75.671	     -18.445	     179.900
	9.200000000	     -16.164	     103.920	      17.982	      39.404	     -67.791	      71.435	     -18.372	     175.642
	9.300000000	     -15.921	     100.654	      17.961	      30.732	     -71.054	      69.516	     -18.337	     170.783
	9.400000000	     -15.661	      96.922	      17.933	      22.082	     -76.065	      86.386	     -18.352	     165.651
	9.500000000	     -15.397	      93.659	      17.917	      13.452	     -76.606	     131.984	     -18.374	     160.453
	9.600000000	     -15.084	      90.736	      17.897	       4.766	     -75.007	     168.394	     -18.401	     154.636
	9.700000000	     -14.806	      87.805	      17.875	      -3.884	     -71.194	    -165.255	     -18.489	     148.256
	9.800000000	     -14.557	      84.990	      17.859	     -12.546	     -67.157	    -171.183	     -18.496	     142.079
	9.900000000	     -14.251	      82.609	      17.838	     -21.240	     -65.421	    -172.883	     -18.493	     135.364
	10.000000000	     -14.046	      79.765	      17.815	     -29.900	     -63.863	    -171.144	     -18.482	     128.350
	10.100000000	     -13.808	      76.862	      17.799	     -38.576	     -61.925	    -173.371	     -18.456	     121.718
	10.200000000	     -13.634	      74.443	      17.778	     -47.306	     -60.609	    -178.113	     -18.433	     115.657
	10.300000000	     -13.455	      71.815	      17.748	     -55.999	     -59.501	     179.799	     -18.293	     110.190
	10.400000000	     -13.301	      69.950	      17.719	     -64.669	     -58.415	     173.957	     -18.157	     105.105
	10.500000000	     -13.153	      67.458	      17.687	     -73.284	     -58.107	     170.088	     -17.951	     100.110
	10.600000000	     -13.031	      65.069	      17.663	     -81.897	     -57.410	     168.458	     -17.726	      95.850
	10.700000000	     -12.926	      62.492	      17.638	     -90.504	     -57.022	     164.789	     -17.544	      91.819
	10.800000000	     -12.868	      60.073	      17.617	     -99.093	     -56.500	     161.827	     -17.372	      88.429
	10.900000000	     -12.860	      57.619	      17.597	    -107.700	     -56.064	     159.483	     -17.263	      85.497
	11.000000000	     -12.871	      54.932	      17.581	    -116.260	     -55.532	     154.990	     -17.099	      82.962
	11.100000000	     -12.940	      52.311	      17.571	    -124.810	     -55.346	     150.568	     -16.921	      80.815
	11.200000000	     -13.020	      49.297	      17.568	    -133.364	     -54.943	     145.405	     -16.761	      78.829
	11.300000000	     -13.135	      45.833	      17.574	    -141.954	     -55.304	     142.503	     -16.635	      76.870
	11.400000000	     -13.342	      42.388	      17.580	    -150.598	     -55.574	     141.099	     -16.546	      75.310
	11.500000000	     -13.572	      38.627	      17.587	    -159.224	     -55.312	     137.550	     -16.434	      73.823
	11.600000000	     -13.877	      34.574	      17.604	    -167.908	     -55.645	     135.397	     -16.469	      72.341
	11.700000000	     -14.187	      30.544	      17.612	    -176.645	     -56.057	     137.449	     -16.470	      71.178
	11.800000000	     -14.472	      25.689	      17.626	     174.665	     -55.539	     137.860	     -16.479	      69.541
	11.900000000	     -14.800	      20.206	      17.650	     165.922	     -55.160	     136.549	     -16.575	      67.634
	12.000000000	     -15.178	      13.888	      17.678	     157.122	     -54.887	     133.956	     -16.702	      65.660
	12.100000000	     -15.546	       6.938	      17.703	     148.261	     -54.463	     131.999	     -16.913	      63.313
	12.200000000	     -15.910	      -0.776	      17.727	     139.347	     -54.340	     128.730	     -17.235	      60.973
	12.300000000	     -16.223	      -8.828	      17.745	     130.408	     -54.512	     125.426	     -17.608	      58.252
	12.400000000	     -16.436	     -17.290	      17.763	     121.435	     -54.177	     123.922	     -18.080	      55.168
	12.500000000	     -16.534	     -26.112	      17.781	     112.439	     -53.997	     121.800	     -18.587	      51.592
	12.600000000	     -16.535	     -35.250	      17.797	     103.393	     -53.550	     116.573	     -19.305	      47.683
	12.700000000	     -16.459	     -44.191	      17.807	      94.333	     -53.625	     110.354	     -20.094	      44.216
	12.800000000	     -16.346	     -52.158	      17.811	      85.233	     -54.016	     101.774	     -20.900	      40.779
	12.900000000	     -16.104	     -59.102	      17.809	      76.190	     -54.719	      98.459	     -21.570	      36.631
	13.000000000	     -15.763	     -65.528	      17.817	      67.134	     -55.142	      95.918	     -22.198	      31.167
	13.100000000	     -15.432	     -71.465	      17.820	      58.060	     -55.591	      91.675	     -22.825	      25.062
	13.200000000	     -15.105	     -76.558	      17.830	      49.006	     -56.302	      87.522	     -23.189	      18.213
	13.300000000	     -14.760	     -81.241	      17.843	      39.869	     -56.871	      87.054	     -23.403	      10.367
	13.400000000	     -14.516	     -85.387	      17.853	      30.681	     -57.013	      83.283	     -23.438	       4.221
	13.500000000	     -14.251	     -88.775	      17.861	      21.493	     -57.816	      78.426	     -23.098	      -0.716
	13.600000000	     -14.010	     -91.764	      17.866	      12.253	     -58.571	      76.048	     -22.471	      -5.750
	13.700000000	     -13.761	     -94.471	      17.870	       3.018	     -59.370	      71.257	     -21.729	      -9.880
	13.800000000	     -13.563	     -97.388	      17.874	      -6.259	     -60.258	      67.516	     -20.867	     -13.387
	13.900000000	     -13.355	    -100.310	      17.876	     -15.574	     -61.691	      65.211	     -19.979	     -16.438
	14.000000000	     -13.288	    -103.428	      17.871	     -24.914	     -63.229	      63.525	     -19.079	     -18.582
	14.100000000	     -13.237	    -106.317	      17.862	     -34.266	     -65.649	      63.360	     -18.197	     -20.091
	14.200000000	     -13.307	    -109.375	      17.849	     -43.587	     -66.694	      66.778	     -17.253	     -20.746
	14.300000000	     -13.411	    -112.079	      17.839	     -52.908	     -68.989	      62.718	     -16.315	     -21.869
	14.400000000	     -13.583	    -115.167	      17.829	     -62.255	     -71.691	      58.757	     -15.403	     -23.153
	14.500000000	     -13.803	    -118.413	      17.817	     -71.611	     -75.498	      82.408	     -14.566	     -24.983
	14.600000000	     -14.113	    -122.085	      17.801	     -80.965	     -77.909	     130.253	     -13.824	     -26.719
	14.700000000	     -14.549	    -126.093	      17.791	     -90.313	     -74.401	     155.559	     -13.155	     -28.581
	14.800000000	     -15.068	    -129.860	      17.782	     -99.679	     -72.498	     160.544	     -12.581	     -30.288
	14.900000000	     -15.707	    -134.173	      17.776	    -109.032	     -71.753	     168.389	     -12.091	     -32.030
	15.000000000	     -16.400	    -139.011	      17.773	    -118.425	     -69.704	     178.085	     -11.680	     -33.773
	15.100000000	     -17.149	    -144.811	      17.773	    -127.828	     -69.361	    -177.658	     -11.324	     -35.714
	15.200000000	     -18.026	    -151.181	      17.780	    -137.222	     -67.997	    -166.638	     -11.059	     -37.583
	15.300000000	     -18.945	    -159.607	      17.792	    -146.689	     -65.908	    -168.346	     -10.885	     -39.618
	15.400000000	     -19.870	    -169.698	      17.805	    -156.136	     -64.353	    -169.354	     -10.788	     -41.549
	15.500000000	     -20.724	     178.724	      17.838	    -165.646	     -63.119	    -175.724	     -10.786	     -43.657
	15.600000000	     -21.256	     164.674	      17.874	    -175.236	     -62.438	     179.290	     -10.845	     -45.572
	15.700000000	     -21.386	     150.408	      17.916	     175.049	     -62.000	     176.165	     -10.996	     -47.812
	15.800000000	     -20.998	     134.866	      17.965	     165.253	     -61.727	     173.796	     -11.246	     -49.810
	15.900000000	     -20.369	     122.107	      18.010	     155.325	     -61.467	     170.360	     -11.563	     -51.793
	16.000000000	     -19.563	     110.996	      18.055	     145.292	     -62.080	     166.920	     -11.963	     -53.681
	16.100000000	     -18.719	     102.276	      18.092	     135.162	     -62.250	     165.600	     -12.400	     -55.448
	16.200000000	     -17.925	      95.107	      18.121	     124.919	     -62.120	     164.338	     -12.898	     -57.409
	16.300000000	     -17.258	      89.456	      18.146	     114.572	     -62.496	     166.310	     -13.470	     -59.464
	16.400000000	     -16.657	      85.083	      18.156	     104.111	     -63.591	     168.155	     -14.104	     -61.326
	16.500000000	     -16.193	      81.148	      18.150	      93.605	     -63.174	     170.625	     -14.746	     -63.252
	16.600000000	     -15.841	      77.542	      18.126	      83.047	     -63.527	     172.636	     -15.345	     -65.035
	16.700000000	     -15.709	      74.704	      18.082	      72.437	     -63.864	     175.678	     -15.825	     -67.293
	16.800000000	     -15.716	      72.858	      18.017	      61.874	     -63.893	    -177.599	     -16.138	     -70.041
	16.900000000	     -15.900	      71.577	      17.940	      51.349	     -63.822	    -166.433	     -16.289	     -74.505
